***BUSMASTER Ver 3.2.2***
***PROTOCOL CAN***
***NOTE: PLEASE DO NOT EDIT THIS DOCUMENT***
***[START LOGGING SESSION]***
***START DATE AND TIME 10:4:2024 11:16:3:561***
***HEX***
***SYSTEM MODE***
***START CHANNEL BAUD RATE***
***CHANNEL 1 - Kvaser - Kvaser Leaf Light v2 #0 (Channel 0), Serial Number- 0, Firmware- 0x000000db 0x00040015 - 500000 bps***
***END CHANNEL BAUD RATE***
***START DATABASE FILES***
***END DATABASE FILES***
***<Time><Tx/Rx><Channel><CAN ID><Type><DLC><DataBytes>***
11:16:03:6490 Rx 1 0x309 s 8 00 00 0E 9D 00 00 00 00 
11:16:03:7490 Rx 1 0x309 s 8 00 00 0E A7 00 00 00 00 
11:16:03:8590 Rx 1 0x309 s 8 00 00 0E B2 00 00 00 00 
11:16:03:9590 Rx 1 0x309 s 8 00 00 0E BC 00 00 00 00 
11:16:04:0590 Rx 1 0x309 s 8 00 00 0E C6 00 00 00 00 
11:16:04:1590 Rx 1 0x309 s 8 00 00 0E D0 00 00 00 00 
11:16:04:2590 Rx 1 0x309 s 8 00 00 0E DA 00 00 00 00 
11:16:04:3590 Rx 1 0x309 s 8 00 00 0E E4 00 00 00 00 
11:16:04:4590 Rx 1 0x309 s 8 00 00 0E EE 00 00 00 00 
11:16:04:5690 Rx 1 0x309 s 8 00 00 0E F9 00 00 00 00 
11:16:04:6690 Rx 1 0x309 s 8 00 00 0F 03 00 00 00 00 
11:16:04:7690 Rx 1 0x309 s 8 00 00 0F 0D 00 00 00 00 
11:16:04:8690 Rx 1 0x309 s 8 00 00 0F 17 00 00 00 00 
11:16:04:9690 Rx 1 0x309 s 8 00 00 0F 21 00 00 00 00 
11:16:05:0690 Rx 1 0x309 s 8 00 00 0F 2B 00 00 00 00 
11:16:05:1690 Rx 1 0x309 s 8 00 00 0F 35 00 00 00 00 
11:16:05:2790 Rx 1 0x309 s 8 00 00 0F 40 00 00 00 00 
11:16:05:3790 Rx 1 0x309 s 8 00 00 0F 4A 00 00 00 00 
11:16:05:4790 Rx 1 0x309 s 8 00 00 0F 54 00 00 00 00 
11:16:05:5790 Rx 1 0x309 s 8 00 00 0F 5E 00 00 00 00 
11:16:05:6790 Rx 1 0x309 s 8 00 00 0F 68 00 00 00 00 
11:16:05:7790 Rx 1 0x309 s 8 00 00 0F 72 00 00 00 00 
11:16:05:8790 Rx 1 0x309 s 8 00 00 0F 7C 00 00 00 00 
11:16:05:9890 Rx 1 0x309 s 8 00 00 0F 87 00 00 00 00 
11:16:06:0890 Rx 1 0x309 s 8 00 00 0F 91 00 00 00 00 
11:16:06:1890 Rx 1 0x309 s 8 00 00 0F 9B 00 00 00 00 
11:16:06:2890 Rx 1 0x309 s 8 00 00 0F A5 00 00 00 00 
11:16:06:3890 Rx 1 0x309 s 8 00 00 0F AF 00 00 00 00 
11:16:06:4890 Rx 1 0x309 s 8 00 00 0F B9 00 00 00 00 
11:16:06:5890 Rx 1 0x309 s 8 00 00 0F C3 00 00 00 00 
11:16:06:6990 Rx 1 0x309 s 8 00 00 0F CE 00 00 00 00 
11:16:06:7990 Rx 1 0x309 s 8 00 00 0F D8 00 00 00 00 
11:16:06:8990 Rx 1 0x309 s 8 00 00 0F E2 00 00 00 00 
11:16:06:9990 Rx 1 0x309 s 8 00 00 0F EC 00 00 00 00 
11:16:07:0990 Rx 1 0x309 s 8 00 00 0F F6 00 00 00 00 
11:16:07:1990 Rx 1 0x309 s 8 00 00 10 00 00 00 00 00 
11:16:07:2990 Rx 1 0x309 s 8 00 00 10 0A 00 00 00 00 
11:16:07:4090 Rx 1 0x309 s 8 00 00 10 15 00 00 00 00 
11:16:07:5090 Rx 1 0x309 s 8 00 00 10 1F 00 00 00 00 
11:16:07:6090 Rx 1 0x309 s 8 00 00 10 29 00 00 00 00 
11:16:07:7090 Rx 1 0x309 s 8 00 00 10 33 00 00 00 00 
11:16:07:8090 Rx 1 0x309 s 8 00 00 10 3D 00 00 00 00 
11:16:07:9090 Rx 1 0x309 s 8 00 00 10 47 00 00 00 00 
11:16:08:0090 Rx 1 0x309 s 8 00 00 10 51 00 00 00 00 
11:16:08:1190 Rx 1 0x309 s 8 00 00 10 5C 00 00 00 00 
11:16:08:2190 Rx 1 0x309 s 8 00 00 10 66 00 00 00 00 
11:16:08:3190 Rx 1 0x309 s 8 00 00 10 70 00 00 00 00 
11:16:08:4190 Rx 1 0x309 s 8 00 00 10 7A 00 00 00 00 
11:16:08:5190 Rx 1 0x309 s 8 00 00 10 84 00 00 00 00 
11:16:08:6190 Rx 1 0x309 s 8 00 00 10 8E 00 00 00 00 
11:16:08:7190 Rx 1 0x309 s 8 00 00 10 98 00 00 00 00 
11:16:08:8290 Rx 1 0x309 s 8 00 00 10 A3 00 00 00 00 
11:16:08:9290 Rx 1 0x309 s 8 00 00 10 AD 00 00 00 00 
11:16:09:0290 Rx 1 0x309 s 8 00 00 10 B7 00 00 00 00 
11:16:09:1290 Rx 1 0x309 s 8 00 00 10 C1 00 00 00 00 
11:16:09:2290 Rx 1 0x309 s 8 00 00 10 CB 00 00 00 00 
11:16:09:3290 Rx 1 0x309 s 8 00 00 10 D5 00 00 00 00 
11:16:09:4290 Rx 1 0x309 s 8 00 00 10 DF 00 00 00 00 
11:16:09:5390 Rx 1 0x309 s 8 00 00 10 EA 00 00 00 00 
11:16:09:6390 Rx 1 0x309 s 8 00 00 10 F4 00 00 00 00 
11:16:09:7390 Rx 1 0x309 s 8 00 00 10 FE 00 00 00 00 
11:16:09:8390 Rx 1 0x309 s 8 00 00 11 08 00 00 00 00 
11:16:09:9390 Rx 1 0x309 s 8 00 00 11 12 00 00 00 00 
11:16:10:0390 Rx 1 0x309 s 8 00 00 11 1C 00 00 00 00 
11:16:10:1390 Rx 1 0x309 s 8 00 00 11 26 00 00 00 00 
11:16:10:2490 Rx 1 0x309 s 8 00 00 11 31 00 00 00 00 
11:16:10:3490 Rx 1 0x309 s 8 00 00 11 3B 00 00 00 00 
11:16:10:4490 Rx 1 0x309 s 8 00 00 11 45 00 00 00 00 
11:16:10:5490 Rx 1 0x309 s 8 00 00 11 4F 00 00 00 00 
11:16:10:6490 Rx 1 0x309 s 8 00 00 11 59 00 00 00 00 
11:16:10:7490 Rx 1 0x309 s 8 00 00 11 63 00 00 00 00 
11:16:10:8590 Rx 1 0x309 s 8 00 00 11 6E 00 00 00 00 
11:16:10:9590 Rx 1 0x309 s 8 00 00 11 78 00 00 00 00 
11:16:11:0590 Rx 1 0x309 s 8 00 00 11 82 00 00 00 00 
11:16:11:1590 Rx 1 0x309 s 8 00 00 11 8C 00 00 00 00 
11:16:11:2590 Rx 1 0x309 s 8 00 00 11 96 00 00 00 00 
11:16:11:3590 Rx 1 0x309 s 8 00 00 11 A0 00 00 00 00 
11:16:11:4590 Rx 1 0x309 s 8 00 00 11 AA 00 00 00 00 
11:16:11:5690 Rx 1 0x309 s 8 00 00 11 B5 00 00 00 00 
11:16:11:6690 Rx 1 0x309 s 8 00 00 11 BF 00 00 00 00 
11:16:11:7690 Rx 1 0x309 s 8 00 00 11 C9 00 00 00 00 
11:16:11:8690 Rx 1 0x309 s 8 00 00 11 D3 00 00 00 00 
11:16:11:9690 Rx 1 0x309 s 8 00 00 11 DD 00 00 00 00 
11:16:12:0690 Rx 1 0x309 s 8 00 00 11 E7 00 00 00 00 
11:16:12:1690 Rx 1 0x309 s 8 00 00 11 F1 00 00 00 00 
11:16:12:2790 Rx 1 0x309 s 8 00 00 11 FC 00 00 00 00 
11:16:12:3790 Rx 1 0x309 s 8 00 00 12 06 00 00 00 00 
11:16:12:4790 Rx 1 0x309 s 8 00 00 12 10 00 00 00 00 
11:16:12:5790 Rx 1 0x309 s 8 00 00 12 1A 00 00 00 00 
11:16:12:6790 Rx 1 0x309 s 8 00 00 12 24 00 00 00 00 
11:16:12:7790 Rx 1 0x309 s 8 00 00 12 2E 00 00 00 00 
11:16:12:8790 Rx 1 0x309 s 8 00 00 12 38 00 00 00 00 
11:16:12:9790 Rx 1 0x309 s 8 00 00 12 42 00 00 00 00 
11:16:13:0890 Rx 1 0x309 s 8 00 00 12 4D 00 00 00 00 
11:16:13:1890 Rx 1 0x309 s 8 00 00 12 57 00 00 00 00 
11:16:13:2890 Rx 1 0x309 s 8 00 00 12 61 00 00 00 00 
11:16:13:3890 Rx 1 0x309 s 8 00 00 12 6B 00 00 00 00 
11:16:13:4890 Rx 1 0x309 s 8 00 00 12 75 00 00 00 00 
11:16:13:5890 Rx 1 0x309 s 8 00 00 12 7F 00 00 00 00 
11:16:13:6990 Rx 1 0x309 s 8 00 00 12 8A 00 00 00 00 
11:16:13:7990 Rx 1 0x309 s 8 00 00 12 94 00 00 00 00 
11:16:13:8990 Rx 1 0x309 s 8 00 00 12 9E 00 00 00 00 
11:16:13:9990 Rx 1 0x309 s 8 00 00 12 A8 00 00 00 00 
11:16:14:0990 Rx 1 0x309 s 8 00 00 12 B2 00 00 00 00 
11:16:14:1990 Rx 1 0x309 s 8 00 00 12 BC 00 00 00 00 
11:16:14:2990 Rx 1 0x309 s 8 00 00 12 C6 00 00 00 00 
11:16:14:4090 Rx 1 0x309 s 8 00 00 12 D1 00 00 00 00 
11:16:14:5090 Rx 1 0x309 s 8 00 00 12 DB 00 00 00 00 
11:16:14:6090 Rx 1 0x309 s 8 00 00 12 E5 00 00 00 00 
11:16:14:7090 Rx 1 0x309 s 8 00 00 12 EF 00 00 00 00 
11:16:14:8090 Rx 1 0x309 s 8 00 00 12 F9 00 00 00 00 
11:16:14:9090 Rx 1 0x309 s 8 00 00 13 03 00 00 00 00 
11:16:15:0090 Rx 1 0x309 s 8 00 00 13 0D 00 00 00 00 
11:16:15:1190 Rx 1 0x309 s 8 00 00 13 18 00 00 00 00 
11:16:15:2190 Rx 1 0x309 s 8 00 00 13 22 00 00 00 00 
11:16:15:3190 Rx 1 0x309 s 8 00 00 13 2C 00 00 00 00 
11:16:15:4190 Rx 1 0x309 s 8 00 00 13 36 00 00 00 00 
11:16:15:5190 Rx 1 0x309 s 8 00 00 13 40 00 00 00 00 
11:16:15:6190 Rx 1 0x309 s 8 00 00 13 4A 00 00 00 00 
11:16:15:7190 Rx 1 0x309 s 8 00 00 13 54 00 00 00 00 
11:16:15:8190 Rx 1 0x309 s 8 00 00 13 5E 00 00 00 00 
11:16:15:9290 Rx 1 0x309 s 8 00 00 13 69 00 00 00 00 
11:16:16:0290 Rx 1 0x309 s 8 00 00 13 73 00 00 00 00 
11:16:16:1290 Rx 1 0x309 s 8 00 00 13 7D 00 00 00 00 
11:16:16:2290 Rx 1 0x309 s 8 00 00 13 87 00 00 00 00 
11:16:16:3290 Rx 1 0x309 s 8 00 00 13 91 00 00 00 00 
11:16:16:4290 Rx 1 0x309 s 8 00 00 13 9B 00 00 00 00 
11:16:16:5290 Rx 1 0x309 s 8 00 00 13 A5 00 00 00 00 
11:16:16:6390 Rx 1 0x309 s 8 00 00 13 B0 00 00 00 00 
11:16:16:7390 Rx 1 0x309 s 8 00 00 13 BA 00 00 00 00 
11:16:16:8390 Rx 1 0x309 s 8 00 00 13 C4 00 00 00 00 
11:16:16:9390 Rx 1 0x309 s 8 00 00 13 CE 00 00 00 00 
11:16:17:0390 Rx 1 0x309 s 8 00 00 13 D8 00 00 00 00 
11:16:17:1390 Rx 1 0x309 s 8 00 00 13 E2 00 00 00 00 
11:16:17:2390 Rx 1 0x309 s 8 00 00 13 EC 00 00 00 00 
11:16:17:3490 Rx 1 0x309 s 8 00 00 13 F7 00 00 00 00 
11:16:17:4490 Rx 1 0x309 s 8 00 00 14 01 00 00 00 00 
11:16:17:5490 Rx 1 0x309 s 8 00 00 14 0B 00 00 00 00 
11:16:17:6490 Rx 1 0x309 s 8 00 00 14 15 00 00 00 00 
11:16:17:7490 Rx 1 0x309 s 8 00 00 14 1F 00 00 00 00 
11:16:17:8490 Rx 1 0x309 s 8 00 00 14 29 00 00 00 00 
11:16:17:9590 Rx 1 0x309 s 8 00 00 14 34 00 00 00 00 
11:16:18:0590 Rx 1 0x309 s 8 00 00 14 3E 00 00 00 00 
11:16:18:1590 Rx 1 0x309 s 8 00 00 14 48 00 00 00 00 
11:16:18:2590 Rx 1 0x309 s 8 00 00 14 52 00 00 00 00 
11:16:18:3590 Rx 1 0x309 s 8 00 00 14 5C 00 00 00 00 
11:16:18:4590 Rx 1 0x309 s 8 00 00 14 66 00 00 00 00 
11:16:18:5590 Rx 1 0x309 s 8 00 00 14 70 00 00 00 00 
11:16:18:6690 Rx 1 0x309 s 8 00 00 14 7B 00 00 00 00 
11:16:18:7690 Rx 1 0x309 s 8 00 00 14 85 00 00 00 00 
11:16:18:8690 Rx 1 0x309 s 8 00 00 14 8F 00 00 00 00 
11:16:18:9690 Rx 1 0x309 s 8 00 00 14 99 00 00 00 00 
11:16:19:0690 Rx 1 0x309 s 8 00 00 14 A3 00 00 00 00 
11:16:19:1690 Rx 1 0x309 s 8 00 00 14 AD 00 00 00 00 
11:16:19:2690 Rx 1 0x309 s 8 00 00 14 B7 00 00 00 00 
11:16:19:3790 Rx 1 0x309 s 8 00 00 14 C2 00 00 00 00 
11:16:19:4790 Rx 1 0x309 s 8 00 00 14 CC 00 00 00 00 
11:16:19:5790 Rx 1 0x309 s 8 00 00 14 D6 00 00 00 00 
11:16:19:6790 Rx 1 0x309 s 8 00 00 14 E0 00 00 00 00 
11:16:19:7790 Rx 1 0x309 s 8 00 00 14 EA 00 00 00 00 
11:16:19:8790 Rx 1 0x309 s 8 00 00 14 F4 00 00 00 00 
11:16:19:9790 Rx 1 0x309 s 8 00 00 14 FE 00 00 00 00 
11:16:20:0890 Rx 1 0x309 s 8 00 00 15 09 00 00 00 00 
11:16:20:1890 Rx 1 0x309 s 8 00 00 15 13 00 00 00 00 
11:16:20:2890 Rx 1 0x309 s 8 00 00 15 1D 00 00 00 00 
11:16:20:3890 Rx 1 0x309 s 8 00 00 15 27 00 00 00 00 
11:16:20:4890 Rx 1 0x309 s 8 00 00 15 31 00 00 00 00 
11:16:20:5890 Rx 1 0x309 s 8 00 00 15 3B 00 00 00 00 
11:16:20:6990 Rx 1 0x309 s 8 00 00 15 46 00 00 00 00 
11:16:20:7990 Rx 1 0x309 s 8 00 00 15 50 00 00 00 00 
11:16:20:8990 Rx 1 0x309 s 8 00 00 15 5A 00 00 00 00 
11:16:20:9990 Rx 1 0x309 s 8 00 00 15 64 00 00 00 00 
11:16:21:0990 Rx 1 0x309 s 8 00 00 15 6E 00 00 00 00 
11:16:21:1990 Rx 1 0x309 s 8 00 00 15 78 00 00 00 00 
11:16:21:2990 Rx 1 0x309 s 8 00 00 15 82 00 00 00 00 
11:16:21:4090 Rx 1 0x309 s 8 00 00 15 8D 00 00 00 00 
11:16:21:5090 Rx 1 0x309 s 8 00 00 15 97 00 00 00 00 
11:16:21:6090 Rx 1 0x309 s 8 00 00 15 A1 00 00 00 00 
11:16:21:7090 Rx 1 0x309 s 8 00 00 15 AB 00 00 00 00 
11:16:21:8090 Rx 1 0x309 s 8 00 00 15 B5 00 00 00 00 
11:16:21:9090 Rx 1 0x309 s 8 00 00 15 BF 00 00 00 00 
11:16:22:0090 Rx 1 0x309 s 8 00 00 15 C9 00 00 00 00 
11:16:22:1190 Rx 1 0x309 s 8 00 00 15 D4 00 00 00 00 
11:16:22:2190 Rx 1 0x309 s 8 00 00 15 DE 00 00 00 00 
11:16:22:3190 Rx 1 0x309 s 8 00 00 15 E8 00 00 00 00 
11:16:22:4190 Rx 1 0x309 s 8 00 00 15 F2 00 00 00 00 
11:16:22:5190 Rx 1 0x309 s 8 00 00 15 FC 00 00 00 00 
11:16:22:6190 Rx 1 0x309 s 8 00 00 16 06 00 00 00 00 
11:16:22:7190 Rx 1 0x309 s 8 00 00 16 10 00 00 00 00 
11:16:22:8190 Rx 1 0x309 s 8 00 00 16 1A 00 00 00 00 
11:16:22:9290 Rx 1 0x309 s 8 00 00 16 25 00 00 00 00 
11:16:23:0290 Rx 1 0x309 s 8 00 00 16 2F 00 00 00 00 
11:16:23:1290 Rx 1 0x309 s 8 00 00 16 39 00 00 00 00 
11:16:23:2290 Rx 1 0x309 s 8 00 00 16 43 00 00 00 00 
11:16:23:3290 Rx 1 0x309 s 8 00 00 16 4D 00 00 00 00 
11:16:23:4290 Rx 1 0x309 s 8 00 00 16 57 00 00 00 00 
11:16:23:5390 Rx 1 0x309 s 8 00 00 16 62 00 00 00 00 
11:16:23:6490 Rx 1 0x309 s 8 00 00 16 6D 00 00 00 00 
11:16:23:7490 Rx 1 0x309 s 8 00 00 16 77 00 00 00 00 
11:16:23:8490 Rx 1 0x309 s 8 00 00 16 81 00 00 00 00 
11:16:23:9490 Rx 1 0x309 s 8 00 00 16 8B 00 00 00 00 
11:16:24:0490 Rx 1 0x309 s 8 00 00 16 95 00 00 00 00 
11:16:24:1490 Rx 1 0x309 s 8 00 00 16 9F 00 00 00 00 
11:16:24:2590 Rx 1 0x309 s 8 00 00 16 AA 00 00 00 00 
11:16:24:3590 Rx 1 0x309 s 8 00 00 16 B4 00 00 00 00 
11:16:24:4590 Rx 1 0x309 s 8 00 00 16 BE 00 00 00 00 
11:16:24:5590 Rx 1 0x309 s 8 00 00 16 C8 00 00 00 00 
11:16:24:6590 Rx 1 0x309 s 8 00 00 16 D2 00 00 00 00 
11:16:24:7590 Rx 1 0x309 s 8 00 00 16 DC 00 00 00 00 
11:16:24:8590 Rx 1 0x309 s 8 00 00 16 E6 00 00 00 00 
11:16:24:9690 Rx 1 0x309 s 8 00 00 16 F1 00 00 00 00 
11:16:25:0690 Rx 1 0x309 s 8 00 00 16 FB 00 00 00 00 
11:16:25:1690 Rx 1 0x309 s 8 00 00 17 05 00 00 00 00 
11:16:25:2690 Rx 1 0x309 s 8 00 00 17 0F 00 00 00 00 
11:16:25:3690 Rx 1 0x309 s 8 00 00 17 19 00 00 00 00 
11:16:25:4690 Rx 1 0x309 s 8 00 00 17 23 00 00 00 00 
11:16:25:5690 Rx 1 0x309 s 8 00 00 17 2D 00 00 00 00 
***END DATE AND TIME 10:4:2024 11:16:25:672***
***[STOP LOGGING SESSION]***

