***BUSMASTER Ver 3.2.2***
***PROTOCOL CAN***
***NOTE: PLEASE DO NOT EDIT THIS DOCUMENT***
***[START LOGGING SESSION]***
***START DATE AND TIME 3:4:2024 15:7:28:956***
***HEX***
***SYSTEM MODE***
***START CHANNEL BAUD RATE***
***CHANNEL 1 - Kvaser - Kvaser Leaf Light v2 #0 (Channel 0), Serial Number- 0, Firmware- 0x000000db 0x00040015 - 500000 bps***
***CHANNEL 2 - Kvaser - Kvaser Leaf Light v2 #1 (Channel 0), Serial Number- 0, Firmware- 0x00000199 0x0004000f - 500000 bps***
***END CHANNEL BAUD RATE***
***START DATABASE FILES***
***C:\Users\Noe\Desktop\DBC\JJE_CAN_V251.dbf***
***END DATABASE FILES***
***<Time><Tx/Rx><Channel><CAN ID><Type><DLC><DataBytes>***
15:02:48:9591 Rx 2 0x5C1 s 8 35 11 61 41 41 00 00 B9 
15:02:48:9591 Rx 2 0x5C2 s 8 02 0C 13 88 00 00 00 00 
15:07:28:9521 Rx 1 0xCFF0008 x 8 A9 3A A6 13 04 01 50 55 
15:07:28:9531 Rx 1 0xCFF08EF x 8 09 00 00 00 A6 13 98 3A 
15:07:28:9531 Rx 1 0xCFF0108 x 8 62 4D 5C 02 2B 11 00 50 
15:07:28:9541 Rx 1 0xCFF0208 x 8 00 00 E8 03 5C 17 00 30 
15:07:28:9551 Rx 1 0xCFF0308 x 8 00 00 00 00 00 5D 06 05 
15:07:28:9561 Rx 1 0xCFF0408 x 8 00 1D 00 0C 00 5D 06 00 
15:07:28:9541 Rx 2 0x5C3 s 8 00 00 00 00 C5 24 31 C0 
15:07:28:9541 Rx 2 0x5C1 s 8 35 11 61 41 41 00 00 BA 
15:07:28:9541 Rx 2 0x5C2 s 8 02 0C 13 88 00 00 00 00 
15:07:28:9621 Rx 1 0xCFF0008 x 8 A3 3A A6 13 04 01 50 65 
15:07:28:9631 Rx 1 0xCFF08EF x 8 09 00 00 00 A6 13 98 3A 
15:07:28:9641 Rx 2 0x061 s 8 00 02 0A 00 C7 4A 00 00 
15:07:28:9641 Rx 2 0x062 s 8 4D 62 00 00 00 00 00 00 
15:07:28:9641 Rx 2 0x1AA s 8 05 00 FA FF 16 00 0A 00 
15:07:28:9651 Rx 2 0x1AB s 8 F9 FF 23 00 F8 FF 23 00 
15:07:28:9651 Rx 2 0x1AC s 8 CA 00 31 01 CA 00 CF 00 
15:07:28:9651 Rx 2 0x1AD s 8 EE 18 03 02 00 00 37 08 
15:07:28:9651 Rx 2 0x1AE s 8 5D 06 A4 05 E2 01 45 03 
15:07:28:9661 Rx 2 0x1AF s 8 1E 00 1D 00 05 00 FA FF 
15:07:28:9661 Rx 2 0x1B0 s 8 00 00 10 00 B6 FF 03 00 
15:07:28:9661 Rx 2 0x1B1 s 8 00 00 00 00 00 00 00 00 
15:07:28:9661 Rx 2 0x1B2 s 8 00 00 00 00 00 00 00 00 
15:07:28:9661 Rx 2 0x1B3 s 8 00 0A 00 00 00 00 00 00 
15:07:28:9671 Rx 2 0x5C1 s 8 35 11 61 41 41 00 00 BB 
15:07:28:9671 Rx 2 0x5C2 s 8 02 0C 13 88 00 00 00 00 
15:07:28:9671 Rx 2 0x5C3 s 8 00 00 00 00 C5 24 31 C0 
15:07:28:9721 Rx 1 0xCFF0008 x 8 A0 3A A6 13 F0 00 50 75 
15:07:28:9731 Rx 1 0xCFF08EF x 8 09 00 00 00 A6 13 98 3A 
15:07:28:9741 Rx 2 0x5C3 s 8 00 00 00 00 C5 24 31 C0 
15:07:28:9741 Rx 2 0x5C1 s 8 35 11 61 41 41 00 00 BC 
15:07:28:9741 Rx 2 0x5C2 s 8 02 0C 13 88 00 00 00 00 
15:07:28:9821 Rx 1 0xCFF0008 x 8 9F 3A A6 13 F0 00 50 85 
15:07:28:9831 Rx 1 0xCFF08EF x 8 09 00 00 00 A6 13 98 3A 
15:07:28:9841 Rx 2 0x5C3 s 8 00 00 00 00 C5 24 31 C0 
15:07:28:9841 Rx 2 0x5C1 s 8 35 11 61 41 41 00 00 BD 
15:07:28:9841 Rx 2 0x5C2 s 8 02 0C 13 88 00 00 00 00 
15:07:28:9921 Rx 1 0xCFF0008 x 8 A2 3A A6 13 F0 00 50 95 
15:07:28:9931 Rx 1 0xCFF08EF x 8 09 00 00 00 A6 13 98 3A 
15:07:28:9941 Rx 2 0x5C3 s 8 00 00 00 00 C5 24 31 C0 
15:07:28:9941 Rx 2 0x5C1 s 8 35 11 61 41 41 00 00 BE 
15:07:28:9941 Rx 2 0x5C2 s 8 02 0C 13 88 00 00 00 00 
15:07:29:0021 Rx 1 0xCFF0008 x 8 A7 3A A6 13 F0 00 50 A5 
15:07:29:0031 Rx 1 0xCFF08EF x 8 09 00 00 00 A6 13 98 3A 
15:07:29:0031 Rx 1 0xCFF0108 x 8 62 4D 5C 02 2B 11 00 60 
15:07:29:0041 Rx 2 0x5C3 s 8 00 00 00 00 C5 24 31 C0 
15:07:29:0041 Rx 2 0x5C1 s 8 35 11 61 41 41 00 00 B0 
15:07:29:0041 Rx 2 0x5C2 s 8 02 0C 13 88 00 00 00 00 
15:07:29:0121 Rx 1 0xCFF0008 x 8 AF 3A A6 13 F0 00 50 B5 
15:07:29:0131 Rx 1 0xCFF08EF x 8 09 00 00 00 A7 13 98 3A 
15:07:29:0141 Rx 2 0x061 s 8 00 02 1A 00 C8 4A 00 00 
15:07:29:0141 Rx 2 0x062 s 8 4D 62 00 00 00 00 00 00 
15:07:29:0141 Rx 2 0x1AA s 8 00 00 FB FF 11 00 19 00 
15:07:29:0151 Rx 2 0x1AB s 8 F9 FF 23 00 FC FF 22 00 
15:07:29:0151 Rx 2 0x1AC s 8 CB 00 33 01 CB 00 D2 00 
15:07:29:0151 Rx 2 0x1AD s 8 EE 18 03 02 00 00 CF 08 
15:07:29:0151 Rx 2 0x1AE s 8 5D 06 A4 05 E2 01 45 03 
15:07:29:0151 Rx 2 0x1AF s 8 1E 00 1C 00 01 00 FA FF 
15:07:29:0161 Rx 2 0x1B0 s 8 00 00 13 00 5D FF 03 00 
15:07:29:0161 Rx 2 0x1B1 s 8 00 00 00 00 00 00 00 00 
15:07:29:0161 Rx 2 0x1B2 s 8 00 00 00 00 00 00 00 00 
15:07:29:0161 Rx 2 0x1B3 s 8 00 0A 00 00 00 00 00 00 
15:07:29:0171 Rx 2 0x5C1 s 8 35 11 61 41 41 00 00 B1 
15:07:29:0171 Rx 2 0x5C2 s 8 02 0C 13 88 00 00 00 00 
15:07:29:0171 Rx 2 0x5C3 s 8 00 00 00 00 C5 24 31 C0 
15:07:29:0221 Rx 1 0xCFF0008 x 8 B8 3A A7 13 F0 00 50 C5 
15:07:29:0231 Rx 1 0xCFF08EF x 8 09 00 00 00 A7 13 98 3A 
15:07:29:0241 Rx 2 0x5C3 s 8 00 00 00 00 C5 24 31 C0 
15:07:29:0241 Rx 2 0x5C1 s 8 35 11 61 41 41 00 00 B2 
15:07:29:0241 Rx 2 0x5C2 s 8 02 0C 13 88 00 00 00 00 
15:07:29:0321 Rx 1 0xCFF0008 x 8 C2 3A A7 13 F0 00 50 D5 
15:07:29:0331 Rx 1 0xCFF08EF x 8 09 00 00 00 A7 13 98 3A 
15:07:29:0341 Rx 2 0x5C3 s 8 00 00 00 00 C5 24 31 C0 
15:07:29:0341 Rx 2 0x5C1 s 8 35 11 61 41 41 00 00 B3 
15:07:29:0341 Rx 2 0x5C2 s 8 02 0C 13 88 00 00 00 00 
15:07:29:0421 Rx 1 0xCFF0008 x 8 CC 3A A7 13 F0 00 50 E5 
15:07:29:0431 Rx 1 0xCFF08EF x 8 09 00 00 00 A7 13 98 3A 
15:07:29:0441 Rx 2 0x5C3 s 8 00 00 00 00 C5 24 31 C0 
15:07:29:0441 Rx 2 0x5C1 s 8 35 11 61 41 41 00 00 B4 
15:07:29:0441 Rx 2 0x5C2 s 8 02 0C 13 88 00 00 00 00 
15:07:29:0521 Rx 1 0xCFF0008 x 8 D4 3A A7 13 F0 00 50 F5 
15:07:29:0531 Rx 1 0xCFF08EF x 8 09 00 00 00 A7 13 98 3A 
15:07:29:0531 Rx 1 0xCFF0108 x 8 62 4D 5C 02 2B 11 00 70 
15:07:29:0541 Rx 1 0xCFF0208 x 8 00 00 E8 03 5C 17 00 40 
15:07:29:0551 Rx 1 0xCFF0308 x 8 00 00 00 00 00 5D 06 05 
15:07:29:0561 Rx 1 0xCFF0408 x 8 00 1E 00 42 00 5D 06 00 
15:07:29:0541 Rx 2 0x5C3 s 8 00 00 00 00 C5 24 31 C0 
15:07:29:0541 Rx 2 0x5C1 s 8 35 11 61 41 41 00 00 B5 
15:07:29:0541 Rx 2 0x5C2 s 8 02 0C 13 88 00 00 00 00 
15:07:29:0621 Rx 1 0xCFF0008 x 8 DA 3A A7 13 04 01 50 05 
15:07:29:0631 Rx 1 0xCFF08EF x 8 09 00 00 00 A7 13 98 3A 
15:07:29:0641 Rx 2 0x061 s 8 00 02 44 00 C8 4A 00 00 
15:07:29:0641 Rx 2 0x062 s 8 4D 62 00 00 00 00 00 00 
15:07:29:0641 Rx 2 0x1AA s 8 FE FF FD FF 0A 00 44 00 
15:07:29:0651 Rx 2 0x1AB s 8 F8 FF 24 00 FE FF 27 00 
15:07:29:0651 Rx 2 0x1AC s 8 D5 00 46 01 D5 00 EF 00 
15:07:29:0651 Rx 2 0x1AD s 8 EE 18 03 02 00 00 79 0A 
15:07:29:0651 Rx 2 0x1AE s 8 5D 06 A4 05 E2 01 4A 03 
15:07:29:0661 Rx 2 0x1AF s 8 1F 00 1F 00 00 00 FA FF 
15:07:29:0661 Rx 2 0x1B0 s 8 00 00 15 00 89 FF 03 00 
15:07:29:0661 Rx 2 0x1B1 s 8 00 00 00 00 00 00 00 00 
15:07:29:0661 Rx 2 0x1B2 s 8 00 00 00 00 00 00 00 00 
15:07:29:0661 Rx 2 0x1B3 s 8 00 0A 00 00 00 00 00 00 
15:07:29:0671 Rx 2 0x5C1 s 8 35 11 61 41 41 00 00 B6 
15:07:29:0671 Rx 2 0x5C2 s 8 02 0C 13 88 00 00 00 00 
15:07:29:0671 Rx 2 0x5C3 s 8 00 00 00 00 C5 24 31 C0 
15:07:29:0721 Rx 1 0xCFF0008 x 8 DE 3A A7 13 04 01 50 15 
15:07:29:0731 Rx 1 0xCFF08EF x 8 09 00 00 00 A7 13 98 3A 
15:07:29:0741 Rx 2 0x5C3 s 8 00 00 00 00 C5 24 31 C0 
15:07:29:0741 Rx 2 0x5C1 s 8 35 11 61 41 41 00 00 B7 
15:07:29:0741 Rx 2 0x5C2 s 8 02 0C 13 88 00 00 00 00 
15:07:29:0821 Rx 1 0xCFF0008 x 8 DE 3A A7 13 04 01 50 25 
15:07:29:0831 Rx 1 0xCFF08EF x 8 09 00 00 00 A7 13 98 3A 
15:07:29:0841 Rx 2 0x5C3 s 8 00 00 00 00 C5 24 31 C0 
15:07:29:0841 Rx 2 0x5C1 s 8 35 11 61 41 41 00 00 B8 
15:07:29:0841 Rx 2 0x5C2 s 8 02 0C 13 88 00 00 00 00 
15:07:29:0921 Rx 1 0xCFF0008 x 8 DB 3A A7 13 04 01 50 35 
15:07:29:0931 Rx 1 0xCFF08EF x 8 09 00 00 00 A7 13 98 3A 
15:07:29:0941 Rx 2 0x5C3 s 8 00 00 00 00 C5 24 31 C0 
15:07:29:0941 Rx 2 0x5C1 s 8 35 11 61 41 41 00 00 B9 
15:07:29:0941 Rx 2 0x5C2 s 8 02 0C 13 88 00 00 00 00 
15:07:29:1021 Rx 1 0xCFF0008 x 8 D6 3A A7 13 18 01 50 45 
15:07:29:1031 Rx 1 0xCFF08EF x 8 09 00 00 00 A7 13 98 3A 
15:07:29:1031 Rx 1 0xCFF0108 x 8 62 4D 5C 02 2B 11 00 80 
15:07:29:1041 Rx 2 0x5C3 s 8 00 00 00 00 C5 24 31 C0 
15:07:29:1041 Rx 2 0x5C1 s 8 35 11 61 41 41 00 00 BA 
15:07:29:1041 Rx 2 0x5C2 s 8 02 0C 13 88 00 00 00 00 
15:07:29:1121 Rx 1 0xCFF0008 x 8 CF 3A A7 13 18 01 50 55 
15:07:29:1131 Rx 1 0xCFF08EF x 8 09 00 00 00 A7 13 98 3A 
15:07:29:1141 Rx 2 0x061 s 8 00 02 33 00 C7 4A 00 00 
15:07:29:1141 Rx 2 0x062 s 8 4D 62 00 00 00 00 00 00 
15:07:29:1141 Rx 2 0x1AA s 8 FF FF FC FF 0E 00 34 00 
15:07:29:1151 Rx 2 0x1AB s 8 F8 FF 24 00 F6 FF 23 00 
15:07:29:1151 Rx 2 0x1AC s 8 D3 00 43 01 D3 00 EA 00 
15:07:29:1151 Rx 2 0x1AD s 8 EE 18 03 02 00 00 E8 09 
15:07:29:1151 Rx 2 0x1AE s 8 5D 06 A4 05 E2 01 4A 03 
15:07:29:1161 Rx 2 0x1AF s 8 1F 00 20 00 00 00 F8 FF 
15:07:29:1161 Rx 2 0x1B0 s 8 00 00 16 00 AB FF 03 00 
15:07:29:1161 Rx 2 0x1B1 s 8 00 00 00 00 00 00 00 00 
15:07:29:1161 Rx 2 0x1B2 s 8 00 00 00 00 00 00 00 00 
15:07:29:1161 Rx 2 0x1B3 s 8 00 0A 00 00 00 00 00 00 
15:07:29:1171 Rx 2 0x5C1 s 8 35 11 61 41 41 00 00 BB 
15:07:29:1171 Rx 2 0x5C2 s 8 02 0C 13 88 00 00 00 00 
15:07:29:1171 Rx 2 0x5C3 s 8 00 00 00 00 C5 24 31 C0 
15:07:29:1221 Rx 1 0xCFF0008 x 8 C6 3A A7 13 18 01 50 65 
15:07:29:1231 Rx 1 0xCFF08EF x 8 09 00 00 00 A7 13 98 3A 
15:07:29:1241 Rx 2 0x5C3 s 8 00 00 00 00 C5 24 31 C0 
15:07:29:1241 Rx 2 0x5C1 s 8 35 11 61 41 41 00 00 BC 
15:07:29:1241 Rx 2 0x5C2 s 8 02 0C 13 88 00 00 00 00 
15:07:29:1321 Rx 1 0xCFF0008 x 8 BD 3A A7 13 18 01 50 75 
15:07:29:1331 Rx 1 0xCFF08EF x 8 09 00 00 00 A7 13 98 3A 
15:07:29:1341 Rx 2 0x5C3 s 8 00 00 00 00 C5 24 31 C0 
15:07:29:1341 Rx 2 0x5C1 s 8 35 11 61 41 41 00 00 BD 
15:07:29:1341 Rx 2 0x5C2 s 8 02 0C 13 88 00 00 00 00 
15:07:29:1421 Rx 1 0xCFF0008 x 8 B6 3A A7 13 18 01 50 85 
15:07:29:1431 Rx 1 0xCFF08EF x 8 09 00 00 00 A7 13 98 3A 
15:07:29:1441 Rx 2 0x5C3 s 8 00 00 00 00 C5 24 31 C0 
15:07:29:1441 Rx 2 0x5C1 s 8 35 11 61 41 41 00 00 BE 
15:07:29:1441 Rx 2 0x5C2 s 8 02 0C 13 88 00 00 00 00 
15:07:29:1521 Rx 1 0xCFF0008 x 8 B1 3A A7 13 18 01 50 95 
15:07:29:1531 Rx 1 0xCFF08EF x 8 09 00 00 00 A7 13 98 3A 
15:07:29:1531 Rx 1 0xCFF0108 x 8 62 4D 5C 02 2B 11 00 90 
15:07:29:1541 Rx 1 0xCFF0208 x 8 00 00 E8 03 5C 17 00 50 
15:07:29:1551 Rx 1 0xCFF0308 x 8 00 00 00 00 00 5D 06 05 
15:07:29:1561 Rx 1 0xCFF0408 x 8 00 1F 00 16 00 5D 06 00 
15:07:29:1541 Rx 2 0x5C3 s 8 00 00 00 00 C5 24 31 C0 
15:07:29:1541 Rx 2 0x5C1 s 8 35 11 61 41 41 00 00 B0 
15:07:29:1541 Rx 2 0x5C2 s 8 02 0C 13 88 00 00 00 00 
15:07:29:1621 Rx 1 0xCFF0008 x 8 AE 3A A7 13 18 01 50 A5 
15:07:29:1631 Rx 1 0xCFF08EF x 8 09 00 00 00 A7 13 98 3A 
15:07:29:1641 Rx 2 0x061 s 8 00 02 16 00 C7 4A 00 00 
15:07:29:1641 Rx 2 0x062 s 8 4D 62 00 00 00 00 00 00 
15:07:29:1641 Rx 2 0x1AA s 8 01 00 FA FF 12 00 16 00 
15:07:29:1651 Rx 2 0x1AB s 8 F8 FF 24 00 FC FF 26 00 
15:07:29:1651 Rx 2 0x1AC s 8 CC 00 35 01 CC 00 D5 00 
15:07:29:1651 Rx 2 0x1AD s 8 EE 18 03 02 00 00 AE 08 
15:07:29:1651 Rx 2 0x1AE s 8 5D 06 A4 05 E2 01 4A 03 
15:07:29:1661 Rx 2 0x1AF s 8 1F 00 1F 00 02 00 F9 FF 
15:07:29:1661 Rx 2 0x1B0 s 8 00 00 17 00 9E FF 03 00 
15:07:29:1661 Rx 2 0x1B1 s 8 00 00 00 00 00 00 00 00 
15:07:29:1661 Rx 2 0x1B2 s 8 00 00 00 00 00 00 00 00 
15:07:29:1661 Rx 2 0x1B3 s 8 00 0A 00 00 00 00 00 00 
15:07:29:1671 Rx 2 0x5C1 s 8 35 11 61 41 41 00 00 B1 
15:07:29:1671 Rx 2 0x5C2 s 8 02 0C 13 88 00 00 00 00 
15:07:29:1671 Rx 2 0x5C3 s 8 00 00 00 00 C5 24 31 C0 
15:07:29:1721 Rx 1 0xCFF0008 x 8 AE 3A A7 13 18 01 50 B5 
15:07:29:1731 Rx 1 0xCFF08EF x 8 09 00 00 00 A7 13 98 3A 
15:07:29:1741 Rx 2 0x5C3 s 8 00 00 00 00 C5 24 31 C0 
15:07:29:1741 Rx 2 0x5C1 s 8 35 11 61 41 41 00 00 B2 
15:07:29:1741 Rx 2 0x5C2 s 8 02 0C 13 88 00 00 00 00 
15:07:29:1821 Rx 1 0xCFF0008 x 8 B1 3A A7 13 04 01 50 C5 
15:07:29:1831 Rx 1 0xCFF08EF x 8 09 00 00 00 A7 13 98 3A 
15:07:29:1841 Rx 2 0x5C3 s 8 00 00 00 00 C5 24 31 C0 
15:07:29:1841 Rx 2 0x5C1 s 8 35 11 61 41 41 00 00 B3 
15:07:29:1841 Rx 2 0x5C2 s 8 02 0C 13 88 00 00 00 00 
15:07:29:1921 Rx 1 0xCFF0008 x 8 B5 3A A7 13 04 01 50 D5 
15:07:29:1931 Rx 1 0xCFF08EF x 8 09 00 00 00 A7 13 98 3A 
15:07:29:1941 Rx 2 0x5C3 s 8 00 00 00 00 C5 24 31 C0 
15:07:29:1941 Rx 2 0x5C1 s 8 35 11 61 41 41 00 00 B4 
15:07:29:1941 Rx 2 0x5C2 s 8 02 0C 13 88 00 00 00 00 
15:07:29:2021 Rx 1 0xCFF0008 x 8 BC 3A A7 13 04 01 50 E5 
15:07:29:2031 Rx 1 0xCFF08EF x 8 09 00 00 00 A7 13 98 3A 
15:07:29:2031 Rx 1 0xCFF0108 x 8 62 4D 5C 02 2B 11 00 A0 
15:07:29:2041 Rx 2 0x5C3 s 8 00 00 00 00 C5 24 31 C0 
15:07:29:2041 Rx 2 0x5C1 s 8 35 11 61 41 41 00 00 B5 
15:07:29:2041 Rx 2 0x5C2 s 8 02 0C 13 88 00 00 00 00 
15:07:29:2121 Rx 1 0xCFF0008 x 8 C3 3A A7 13 04 01 50 F5 
15:07:29:2131 Rx 1 0xCFF08EF x 8 09 00 00 00 A8 13 98 3A 
15:07:29:2141 Rx 2 0x061 s 8 00 02 2E 00 C8 4A 00 00 
15:07:29:2141 Rx 2 0x062 s 8 4D 62 00 00 00 00 00 00 
15:07:29:2141 Rx 2 0x1AA s 8 03 00 FD FF 0D 00 2D 00 
15:07:29:2151 Rx 2 0x1AB s 8 F8 FF 24 00 F3 FF 22 00 
15:07:29:2151 Rx 2 0x1AC s 8 CF 00 3B 01 CF 00 DF 00 
15:07:29:2151 Rx 2 0x1AD s 8 EE 18 03 02 00 00 8F 09 
15:07:29:2151 Rx 2 0x1AE s 8 5D 06 A4 05 E2 01 4A 03 
15:07:29:2151 Rx 2 0x1AF s 8 1F 00 1F 00 02 00 FA FF 
15:07:29:2161 Rx 2 0x1B0 s 8 00 00 18 00 9C FF 03 00 
15:07:29:2161 Rx 2 0x1B1 s 8 00 00 00 00 00 00 00 00 
15:07:29:2161 Rx 2 0x1B2 s 8 00 00 00 00 00 00 00 00 
15:07:29:2171 Rx 2 0x1B3 s 8 00 0A 00 00 00 00 00 00 
15:07:29:2171 Rx 2 0x5C1 s 8 35 11 61 41 41 00 00 B6 
15:07:29:2171 Rx 2 0x5C2 s 8 02 0C 13 88 00 00 00 00 
15:07:29:2171 Rx 2 0x5C3 s 8 00 00 00 00 C5 24 31 C0 
15:07:29:2221 Rx 1 0xCFF0008 x 8 CB 3A A8 13 04 01 50 05 
15:07:29:2231 Rx 1 0xCFF08EF x 8 09 00 00 00 A8 13 98 3A 
15:07:29:2241 Rx 2 0x5C3 s 8 00 00 00 00 C5 24 31 C0 
15:07:29:2241 Rx 2 0x5C1 s 8 35 11 61 41 41 00 00 B7 
15:07:29:2241 Rx 2 0x5C2 s 8 02 0C 13 88 00 00 00 00 
15:07:29:2321 Rx 1 0xCFF0008 x 8 D4 3A A8 13 04 01 50 15 
15:07:29:2331 Rx 1 0xCFF08EF x 8 09 00 00 00 A8 13 98 3A 
15:07:29:2341 Rx 2 0x5C3 s 8 00 00 00 00 C5 24 31 C0 
15:07:29:2341 Rx 2 0x5C1 s 8 35 11 61 41 41 00 00 B8 
15:07:29:2341 Rx 2 0x5C2 s 8 02 0C 13 88 00 00 00 00 
15:07:29:2421 Rx 1 0xCFF0008 x 8 DD 3A A8 13 04 01 50 25 
15:07:29:2431 Rx 1 0xCFF08EF x 8 09 00 00 00 A8 13 98 3A 
15:07:29:2441 Rx 2 0x5C3 s 8 00 00 00 00 C5 24 31 C0 
15:07:29:2441 Rx 2 0x5C1 s 8 35 11 61 41 41 00 00 B9 
15:07:29:2441 Rx 2 0x5C2 s 8 02 0C 13 88 00 00 00 00 
15:07:29:2521 Rx 1 0xCFF0008 x 8 E5 3A A8 13 04 01 50 35 
15:07:29:2531 Rx 1 0xCFF08EF x 8 09 00 00 00 A8 13 98 3A 
15:07:29:2531 Rx 1 0xCFF0108 x 8 62 4D 5C 02 2B 11 00 B0 
15:07:29:2541 Rx 1 0xCFF0208 x 8 00 00 E8 03 5C 17 00 60 
15:07:29:2551 Rx 1 0xCFF0308 x 8 00 00 00 00 00 5D 06 05 
15:07:29:2561 Rx 1 0xCFF0408 x 8 00 1F 00 51 00 5D 06 00 
15:07:29:2541 Rx 2 0x5C3 s 8 00 00 00 00 C5 24 31 C0 
15:07:29:2541 Rx 2 0x5C1 s 8 35 11 61 41 41 00 00 BA 
15:07:29:2541 Rx 2 0x5C2 s 8 02 0C 13 88 00 00 00 00 
15:07:29:2621 Rx 1 0xCFF0008 x 8 EA 3A A8 13 0E 01 50 45 
15:07:29:2631 Rx 1 0xCFF08EF x 8 09 00 00 00 A8 13 98 3A 
15:07:29:2641 Rx 2 0x061 s 8 00 02 53 00 C8 4A 00 00 
15:07:29:2641 Rx 2 0x062 s 8 4D 62 00 00 00 00 00 00 
15:07:29:2641 Rx 2 0x1AA s 8 FE FF FE FF 07 00 53 00 
15:07:29:2651 Rx 2 0x1AB s 8 F8 FF 25 00 FF FF 28 00 
15:07:29:2651 Rx 2 0x1AC s 8 D8 00 4C 01 D8 00 F9 00 
15:07:29:2651 Rx 2 0x1AD s 8 EE 18 03 02 00 00 0F 0B 
15:07:29:2651 Rx 2 0x1AE s 8 5D 06 A4 05 E2 01 4F 03 
15:07:29:2661 Rx 2 0x1AF s 8 20 00 20 00 00 00 FA FF 
15:07:29:2661 Rx 2 0x1B0 s 8 00 00 18 00 BA FF 03 00 
15:07:29:2661 Rx 2 0x1B1 s 8 00 00 00 00 00 00 00 00 
15:07:29:2661 Rx 2 0x1B2 s 8 00 00 00 00 00 00 00 00 
15:07:29:2671 Rx 2 0x1B3 s 8 00 0A 00 00 00 00 00 00 
15:07:29:2671 Rx 2 0x5C1 s 8 35 11 61 41 41 00 00 BB 
15:07:29:2671 Rx 2 0x5C2 s 8 02 0C 13 88 00 00 00 00 
15:07:29:2671 Rx 2 0x5C3 s 8 00 00 00 00 C5 24 31 C0 
15:07:29:2721 Rx 1 0xCFF0008 x 8 EC 3A A8 13 0E 01 50 55 
15:07:29:2731 Rx 1 0xCFF08EF x 8 09 00 00 00 A8 13 98 3A 
15:07:29:2741 Rx 2 0x5C3 s 8 00 00 00 00 C5 24 31 C0 
15:07:29:2741 Rx 2 0x5C1 s 8 35 11 61 41 41 00 00 BC 
15:07:29:2741 Rx 2 0x5C2 s 8 02 0C 13 88 00 00 00 00 
15:07:29:2821 Rx 1 0xCFF0008 x 8 EB 3A A8 13 0E 01 50 65 
15:07:29:2831 Rx 1 0xCFF08EF x 8 09 00 00 00 A8 13 98 3A 
15:07:29:2841 Rx 2 0x5C3 s 8 00 00 00 00 C5 24 31 C0 
15:07:29:2841 Rx 2 0x5C1 s 8 35 11 61 41 41 00 00 BD 
15:07:29:2841 Rx 2 0x5C2 s 8 02 0C 13 88 00 00 00 00 
15:07:29:2921 Rx 1 0xCFF0008 x 8 E9 3A A8 13 0E 01 50 75 
15:07:29:2931 Rx 1 0xCFF08EF x 8 09 00 00 00 A8 13 98 3A 
15:07:29:2941 Rx 2 0x5C3 s 8 00 00 00 00 C5 24 31 C0 
15:07:29:2941 Rx 2 0x5C1 s 8 35 11 61 41 41 00 00 BE 
15:07:29:2941 Rx 2 0x5C2 s 8 02 0C 13 88 00 00 00 00 
15:07:29:3021 Rx 1 0xCFF0008 x 8 E4 3A A8 13 22 01 50 85 
15:07:29:3031 Rx 1 0xCFF08EF x 8 09 00 00 00 A8 13 98 3A 
15:07:29:3031 Rx 1 0xCFF0108 x 8 62 4D 5C 02 2B 11 00 C0 
15:07:29:3041 Rx 2 0x5C3 s 8 00 00 00 00 C5 24 31 C0 
15:07:29:3041 Rx 2 0x5C1 s 8 35 11 61 41 41 00 00 B0 
15:07:29:3041 Rx 2 0x5C2 s 8 02 0C 13 88 00 00 00 00 
15:07:29:3121 Rx 1 0xCFF0008 x 8 DE 3A A8 13 22 01 50 95 
15:07:29:3131 Rx 1 0xCFF08EF x 8 09 00 00 00 A8 13 98 3A 
15:07:29:3141 Rx 2 0x061 s 8 00 02 43 00 C8 4A 00 00 
15:07:29:3141 Rx 2 0x062 s 8 4D 62 00 00 00 00 00 00 
15:07:29:3141 Rx 2 0x1AA s 8 03 00 FE FF 0B 00 44 00 
15:07:29:3151 Rx 2 0x1AB s 8 F8 FF 25 00 F2 FF 24 00 
15:07:29:3151 Rx 2 0x1AC s 8 D6 00 48 01 D6 00 F2 00 
15:07:29:3151 Rx 2 0x1AD s 8 EE 18 03 02 00 00 81 0A 
15:07:29:3151 Rx 2 0x1AE s 8 5D 06 A4 05 E2 01 4F 03 
15:07:29:3151 Rx 2 0x1AF s 8 20 00 21 00 02 00 F9 FF 
15:07:29:3161 Rx 2 0x1B0 s 8 00 00 19 00 CE FF 03 00 
15:07:29:3161 Rx 2 0x1B1 s 8 00 00 00 00 00 00 00 00 
15:07:29:3161 Rx 2 0x1B2 s 8 00 00 00 00 00 00 00 00 
15:07:29:3171 Rx 2 0x1B3 s 8 00 0A 00 00 00 00 00 00 
15:07:29:3171 Rx 2 0x5C1 s 8 35 11 61 41 41 00 00 B1 
15:07:29:3171 Rx 2 0x5C2 s 8 02 0C 13 88 00 00 00 00 
15:07:29:3171 Rx 2 0x5C3 s 8 00 00 00 00 C5 24 31 C0 
15:07:29:3221 Rx 1 0xCFF0008 x 8 D6 3A A8 13 22 01 50 A5 
15:07:29:3231 Rx 1 0xCFF08EF x 8 09 00 00 00 A8 13 98 3A 
15:07:29:3241 Rx 2 0x5C3 s 8 00 00 00 00 C5 24 31 C0 
15:07:29:3241 Rx 2 0x5C1 s 8 35 11 61 41 41 00 00 B2 
15:07:29:3241 Rx 2 0x5C2 s 8 02 0C 13 88 00 00 00 00 
15:07:29:3321 Rx 1 0xCFF0008 x 8 CD 3A A8 13 18 01 50 B5 
15:07:29:3331 Rx 1 0xCFF08EF x 8 09 00 00 00 A8 13 98 3A 
15:07:29:3341 Rx 2 0x5C3 s 8 00 00 00 00 C5 24 31 C0 
15:07:29:3341 Rx 2 0x5C1 s 8 35 11 61 41 41 00 00 B3 
15:07:29:3341 Rx 2 0x5C2 s 8 02 0C 13 88 00 00 00 00 
15:07:29:3421 Rx 1 0xCFF0008 x 8 C6 3A A8 13 18 01 50 C5 
15:07:29:3431 Rx 1 0xCFF08EF x 8 09 00 00 00 A9 13 98 3A 
15:07:29:3441 Rx 2 0x5C3 s 8 00 00 00 00 C5 24 31 C0 
15:07:29:3441 Rx 2 0x5C1 s 8 35 11 61 41 41 00 00 B4 
15:07:29:3441 Rx 2 0x5C2 s 8 02 0C 13 88 00 00 00 00 
15:07:29:3521 Rx 1 0xCFF0008 x 8 BF 3A A9 13 18 01 50 D5 
15:07:29:3531 Rx 1 0xCFF08EF x 8 09 00 00 00 AA 13 98 3A 
15:07:29:3531 Rx 1 0xCFF0108 x 8 62 4D 5C 02 2B 11 00 D0 
15:07:29:3541 Rx 1 0xCFF0208 x 8 00 00 E8 03 5C 17 00 70 
15:07:29:3551 Rx 1 0xCFF0308 x 8 00 00 00 00 00 5D 06 05 
15:07:29:3561 Rx 1 0xCFF0408 x 8 00 21 00 22 00 5D 06 00 
15:07:29:3541 Rx 2 0x5C3 s 8 00 00 00 00 C5 24 31 C0 
15:07:29:3541 Rx 2 0x5C1 s 8 35 11 61 41 41 00 00 B5 
15:07:29:3541 Rx 2 0x5C2 s 8 02 0C 13 88 00 00 00 00 
15:07:29:3621 Rx 1 0xCFF0008 x 8 BA 3A A9 13 18 01 50 E5 
15:07:29:3631 Rx 1 0xCFF08EF x 8 09 00 00 00 AB 13 98 3A 
15:07:29:3641 Rx 2 0x061 s 8 00 02 20 00 C9 4A 00 00 
15:07:29:3641 Rx 2 0x062 s 8 4D 62 00 00 00 00 00 00 
15:07:29:3641 Rx 2 0x1AA s 8 00 00 FC FF 0F 00 20 00 
15:07:29:3651 Rx 2 0x1AB s 8 F7 FF 26 00 F0 FF 23 00 
15:07:29:3651 Rx 2 0x1AC s 8 CF 00 3A 01 CF 00 DD 00 
15:07:29:3651 Rx 2 0x1AD s 8 EE 18 03 02 00 00 1E 09 
15:07:29:3651 Rx 2 0x1AE s 8 5D 06 A4 05 E2 01 54 03 
15:07:29:3651 Rx 2 0x1AF s 8 21 00 21 00 00 00 F9 FF 
15:07:29:3661 Rx 2 0x1B0 s 8 00 00 19 00 C6 FF 03 00 
15:07:29:3661 Rx 2 0x1B1 s 8 00 00 00 00 00 00 00 00 
15:07:29:3661 Rx 2 0x1B2 s 8 00 00 00 00 00 00 00 00 
15:07:29:3671 Rx 2 0x1B3 s 8 00 0A 00 00 00 00 00 00 
15:07:29:3671 Rx 2 0x5C1 s 8 35 11 61 41 41 00 00 B6 
15:07:29:3671 Rx 2 0x5C2 s 8 02 0C 13 88 00 00 00 00 
15:07:29:3671 Rx 2 0x5C3 s 8 00 00 00 00 C5 24 31 C0 
15:07:29:3721 Rx 1 0xCFF0008 x 8 B7 3A AB 13 18 01 50 F5 
15:07:29:3731 Rx 1 0xCFF08EF x 8 09 00 00 00 AC 13 98 3A 
15:07:29:3741 Rx 2 0x5C3 s 8 00 00 00 00 C5 24 31 C0 
15:07:29:3741 Rx 2 0x5C1 s 8 35 11 61 41 41 00 00 B7 
15:07:29:3741 Rx 2 0x5C2 s 8 02 0C 13 88 00 00 00 00 
15:07:29:3821 Rx 1 0xCFF0008 x 8 B9 3A AC 13 18 01 50 05 
15:07:29:3831 Rx 1 0xCFF08EF x 8 09 00 00 00 AD 13 98 3A 
15:07:29:3841 Rx 2 0x5C3 s 8 00 00 00 00 C5 24 31 C0 
15:07:29:3841 Rx 2 0x5C1 s 8 35 11 61 41 41 00 00 B8 
15:07:29:3841 Rx 2 0x5C2 s 8 02 0C 13 88 00 00 00 00 
15:07:29:3921 Rx 1 0xCFF0008 x 8 BF 3A AC 13 18 01 50 15 
15:07:29:3931 Rx 1 0xCFF08EF x 8 09 00 00 00 AE 13 98 3A 
15:07:29:3941 Rx 2 0x5C3 s 8 00 00 00 00 C5 24 31 C0 
15:07:29:3941 Rx 2 0x5C1 s 8 35 11 61 41 41 00 00 B9 
15:07:29:3941 Rx 2 0x5C2 s 8 02 0C 13 88 00 00 00 00 
15:07:29:4021 Rx 1 0xCFF0008 x 8 CB 3A AE 13 18 01 50 25 
15:07:29:4031 Rx 1 0xCFF08EF x 8 09 00 00 00 AF 13 98 3A 
15:07:29:4031 Rx 1 0xCFF0108 x 8 62 4D 5C 02 2B 11 00 E0 
15:07:29:4041 Rx 2 0x5C3 s 8 00 00 00 00 C5 24 31 C0 
15:07:29:4041 Rx 2 0x5C1 s 8 35 11 61 41 41 00 00 BA 
15:07:29:4041 Rx 2 0x5C2 s 8 02 0C 13 88 00 00 00 00 
15:07:29:4121 Rx 1 0xCFF0008 x 8 D9 3A AE 13 18 01 50 35 
15:07:29:4131 Rx 1 0xCFF08EF x 8 09 00 00 00 B0 13 98 3A 
15:07:29:4141 Rx 2 0x061 s 8 00 02 47 00 C9 4A 00 00 
15:07:29:4141 Rx 2 0x062 s 8 4D 62 00 00 00 00 00 00 
15:07:29:4141 Rx 2 0x1AA s 8 02 00 00 00 09 00 46 00 
15:07:29:4151 Rx 2 0x1AB s 8 F5 FF 2B 00 E7 FF 26 00 
15:07:29:4151 Rx 2 0x1AC s 8 D3 00 43 01 D3 00 EB 00 
15:07:29:4151 Rx 2 0x1AD s 8 EE 18 03 02 00 00 90 0A 
15:07:29:4151 Rx 2 0x1AE s 8 5D 06 A4 05 E2 01 6D 03 
15:07:29:4161 Rx 2 0x1AF s 8 26 00 22 00 01 00 FB FF 
15:07:29:4161 Rx 2 0x1B0 s 8 00 00 1A 00 C4 FF 03 00 
15:07:29:4161 Rx 2 0x1B1 s 8 00 00 00 00 00 00 00 00 
15:07:29:4161 Rx 2 0x1B2 s 8 00 00 00 00 00 00 00 00 
15:07:29:4171 Rx 2 0x1B3 s 8 00 0A 00 00 00 00 00 00 
15:07:29:4171 Rx 2 0x5C1 s 8 35 11 61 41 41 00 00 BB 
15:07:29:4171 Rx 2 0x5C2 s 8 02 0C 13 88 00 00 00 00 
15:07:29:4171 Rx 2 0x5C3 s 8 00 00 00 00 C5 24 31 C0 
15:07:29:4221 Rx 1 0xCFF0008 x 8 E9 3A B0 13 22 01 50 45 
15:07:29:4231 Rx 1 0xCFF08EF x 8 09 00 00 00 B1 13 98 3A 
15:07:29:4241 Rx 2 0x5C3 s 8 00 00 00 00 C5 24 31 C0 
15:07:29:4241 Rx 2 0x5C1 s 8 35 11 61 41 41 00 00 BC 
15:07:29:4241 Rx 2 0x5C2 s 8 02 0C 13 88 00 00 00 00 
15:07:29:4321 Rx 1 0xCFF0008 x 8 FA 3A AF 13 22 01 50 55 
15:07:29:4331 Rx 1 0xCFF08EF x 8 09 00 00 00 B2 13 98 3A 
15:07:29:4341 Rx 2 0x5C3 s 8 00 00 00 00 C5 24 31 C0 
15:07:29:4341 Rx 2 0x5C1 s 8 35 11 61 41 41 00 00 BD 
15:07:29:4341 Rx 2 0x5C2 s 8 02 0C 13 88 00 00 00 00 
15:07:29:4421 Rx 1 0xCFF0008 x 8 0A 3B AC 13 22 01 50 65 
15:07:29:4431 Rx 1 0xCFF08EF x 8 09 00 00 00 B3 13 98 3A 
15:07:29:4441 Rx 2 0x5C3 s 8 00 00 00 00 C5 24 31 C0 
15:07:29:4441 Rx 2 0x5C1 s 8 35 11 61 41 41 00 00 BE 
15:07:29:4441 Rx 2 0x5C2 s 8 02 0C 13 88 00 00 00 00 
15:07:29:4521 Rx 1 0xCFF0008 x 8 16 3B AB 13 40 01 50 75 
15:07:29:4531 Rx 1 0xCFF08EF x 8 09 00 00 00 B5 13 98 3A 
15:07:29:4531 Rx 1 0xCFF0108 x 8 62 4D 5C 02 2B 11 00 F0 
15:07:29:4541 Rx 1 0xCFF0208 x 8 00 00 E8 03 5C 17 00 80 
15:07:29:4551 Rx 1 0xCFF0308 x 8 00 00 00 00 00 5D 06 05 
15:07:29:4561 Rx 1 0xCFF0408 x 8 08 25 00 84 00 5D 06 00 
15:07:29:4541 Rx 2 0x5C3 s 8 00 00 00 00 C5 24 31 C0 
15:07:29:4541 Rx 2 0x5C1 s 8 35 11 61 41 41 00 00 B0 
15:07:29:4541 Rx 2 0x5C2 s 8 02 0C 13 88 00 00 00 00 
15:07:29:4621 Rx 1 0xCFF0008 x 8 1B 3B AD 13 40 01 50 85 
15:07:29:4631 Rx 1 0xCFF08EF x 8 09 00 00 00 B6 13 98 3A 
15:07:29:4641 Rx 2 0x061 s 8 00 02 83 00 C8 4A 00 00 
15:07:29:4641 Rx 2 0x062 s 8 4D 62 00 00 00 00 00 00 
15:07:29:4641 Rx 2 0x1AA s 8 FE FF 01 00 05 00 83 00 
15:07:29:4651 Rx 2 0x1AB s 8 F5 FF 2A 00 FB FF 2C 00 
15:07:29:4651 Rx 2 0x1AC s 8 E2 00 60 01 E2 00 17 01 
15:07:29:4651 Rx 2 0x1AD s 8 EE 18 03 02 00 00 F5 0C 
15:07:29:4651 Rx 2 0x1AE s 8 5D 06 A4 05 E2 01 5F 03 
15:07:29:4661 Rx 2 0x1AF s 8 25 00 25 00 01 00 FA FF 
15:07:29:4661 Rx 2 0x1B0 s 8 00 00 1C 00 E0 FF 03 00 
15:07:29:4661 Rx 2 0x1B1 s 8 00 00 00 00 00 00 00 00 
15:07:29:4661 Rx 2 0x1B2 s 8 00 00 00 00 00 00 00 00 
15:07:29:4671 Rx 2 0x1B3 s 8 00 0A 00 00 00 00 00 00 
15:07:29:4671 Rx 2 0x5C1 s 8 35 11 61 41 41 00 00 B1 
15:07:29:4671 Rx 2 0x5C2 s 8 02 0C 13 88 00 00 00 00 
15:07:29:4671 Rx 2 0x5C3 s 8 00 00 00 00 C5 24 31 C0 
15:07:29:4721 Rx 1 0xCFF0008 x 8 16 3B B0 13 40 01 50 95 
15:07:29:4731 Rx 1 0xCFF08EF x 8 09 00 00 00 B7 13 98 3A 
15:07:29:4741 Rx 2 0x5C3 s 8 00 00 00 00 C5 24 31 C0 
15:07:29:4741 Rx 2 0x5C1 s 8 35 11 61 41 41 00 00 B2 
15:07:29:4741 Rx 2 0x5C2 s 8 02 0C 13 88 00 00 00 00 
15:07:29:4821 Rx 1 0xCFF0008 x 8 0C 3B B4 13 40 01 50 A5 
15:07:29:4831 Rx 1 0xCFF08EF x 8 09 00 00 00 B8 13 98 3A 
15:07:29:4841 Rx 2 0x5C3 s 8 00 00 00 00 C5 24 31 C0 
15:07:29:4841 Rx 2 0x5C1 s 8 35 11 61 41 41 00 00 B3 
15:07:29:4841 Rx 2 0x5C2 s 8 02 0C 13 88 00 00 00 00 
15:07:29:4921 Rx 1 0xCFF0008 x 8 01 3B B6 13 40 01 50 B5 
15:07:29:4931 Rx 1 0xCFF08EF x 8 09 00 00 00 B9 13 98 3A 
15:07:29:4941 Rx 2 0x5C3 s 8 00 00 00 00 C5 24 31 C0 
15:07:29:4941 Rx 2 0x5C1 s 8 35 11 61 41 41 00 00 B4 
15:07:29:4941 Rx 2 0x5C2 s 8 02 0C 13 88 00 00 00 00 
15:07:29:5021 Rx 1 0xCFF0008 x 8 F7 3A B8 13 40 01 50 C5 
15:07:29:5031 Rx 1 0xCFF08EF x 8 09 00 00 00 BB 13 98 3A 
15:07:29:5031 Rx 1 0xCFF0108 x 8 62 4D 5C 02 2B 11 00 00 
15:07:29:5041 Rx 2 0x5C3 s 8 00 00 00 00 C5 24 31 C0 
15:07:29:5041 Rx 2 0x5C1 s 8 35 11 61 41 41 00 00 B5 
15:07:29:5041 Rx 2 0x5C2 s 8 02 0C 13 88 00 00 00 00 
15:07:29:5121 Rx 1 0xCFF0008 x 8 EF 3A BB 13 5E 01 50 D5 
15:07:29:5131 Rx 1 0xCFF08EF x 8 09 00 00 00 BC 13 98 3A 
15:07:29:5141 Rx 2 0x061 s 8 00 02 54 00 C7 4A 00 00 
15:07:29:5141 Rx 2 0x062 s 8 4D 62 00 00 00 00 00 00 
15:07:29:5141 Rx 2 0x1AA s 8 00 00 FF FF 04 00 54 00 
15:07:29:5151 Rx 2 0x1AB s 8 EF FF 39 00 F5 FF 38 00 
15:07:29:5151 Rx 2 0x1AC s 8 D9 00 4F 01 D9 00 FD 00 
15:07:29:5151 Rx 2 0x1AD s 8 EE 18 03 02 00 00 28 0B 
15:07:29:5151 Rx 2 0x1AE s 8 5D 06 A4 05 E2 01 9E 03 
15:07:29:5161 Rx 2 0x1AF s 8 33 00 29 00 02 00 FA FF 
15:07:29:5161 Rx 2 0x1B0 s 8 00 00 20 00 EA FF 03 00 
15:07:29:5161 Rx 2 0x1B1 s 8 00 00 00 00 00 00 00 00 
15:07:29:5161 Rx 2 0x1B2 s 8 00 00 00 00 00 00 00 00 
15:07:29:5171 Rx 2 0x1B3 s 8 00 0A 00 00 00 00 00 00 
15:07:29:5171 Rx 2 0x5C1 s 8 35 11 61 41 41 00 00 B6 
15:07:29:5171 Rx 2 0x5C2 s 8 02 0C 13 88 00 00 00 00 
15:07:29:5171 Rx 2 0x5C3 s 8 00 00 00 00 C5 24 31 C0 
15:07:29:5221 Rx 1 0xCFF0008 x 8 E8 3A BC 13 5E 01 50 E5 
15:07:29:5231 Rx 1 0xCFF08EF x 8 09 00 00 00 BD 13 98 3A 
15:07:29:5241 Rx 2 0x5C3 s 8 00 00 00 00 C5 24 31 C0 
15:07:29:5241 Rx 2 0x5C1 s 8 35 11 61 41 41 00 00 B7 
15:07:29:5241 Rx 2 0x5C2 s 8 02 0C 13 88 00 00 00 00 
15:07:29:5321 Rx 1 0xCFF0008 x 8 E4 3A BD 13 5E 01 50 F5 
15:07:29:5331 Rx 1 0xCFF08EF x 8 09 00 00 00 BE 13 98 3A 
15:07:29:5341 Rx 2 0x5C3 s 8 00 00 00 00 C5 24 31 C0 
15:07:29:5341 Rx 2 0x5C1 s 8 35 11 61 41 41 00 00 B8 
15:07:29:5341 Rx 2 0x5C2 s 8 02 0C 13 88 00 00 00 00 
15:07:29:5421 Rx 1 0xCFF0008 x 8 E1 3A BD 13 5E 01 50 05 
15:07:29:5431 Rx 1 0xCFF08EF x 8 09 00 00 00 C0 13 98 3A 
15:07:29:5441 Rx 2 0x5C3 s 8 00 00 00 00 C5 24 31 C0 
15:07:29:5441 Rx 2 0x5C1 s 8 35 11 61 41 41 00 00 B9 
15:07:29:5441 Rx 2 0x5C2 s 8 02 0C 13 88 00 00 00 00 
15:07:29:5521 Rx 1 0xCFF0008 x 8 E1 3A BE 13 9A 01 50 15 
15:07:29:5531 Rx 1 0xCFF08EF x 8 09 00 00 00 C1 13 98 3A 
15:07:29:5531 Rx 1 0xCFF0108 x 8 62 4D 5C 02 2B 11 00 10 
15:07:29:5541 Rx 1 0xCFF0208 x 8 00 00 E8 03 5C 17 00 90 
15:07:29:5551 Rx 1 0xCFF0308 x 8 00 00 00 00 00 5D 06 05 
15:07:29:5561 Rx 1 0xCFF0408 x 8 00 32 00 4A 00 5D 06 00 
15:07:29:5541 Rx 2 0x5C3 s 8 00 00 00 00 C5 24 31 C0 
15:07:29:5541 Rx 2 0x5C1 s 8 35 11 61 41 41 00 00 BA 
15:07:29:5541 Rx 2 0x5C2 s 8 02 0C 13 88 00 00 00 00 
15:07:29:5621 Rx 1 0xCFF0008 x 8 E3 3A C1 13 9A 01 50 25 
15:07:29:5631 Rx 1 0xCFF08EF x 8 09 00 00 00 C2 13 98 3A 
15:07:29:5641 Rx 2 0x061 s 8 00 02 4C 00 C7 4A 00 00 
15:07:29:5641 Rx 2 0x062 s 8 4D 62 00 00 00 00 00 00 
15:07:29:5641 Rx 2 0x1AA s 8 00 00 00 00 08 00 4C 00 
15:07:29:5651 Rx 2 0x1AB s 8 EB FF 3E 00 E1 FF 3A 00 
15:07:29:5651 Rx 2 0x1AC s 8 D6 00 49 01 D6 00 F4 00 
15:07:29:5651 Rx 2 0x1AD s 8 EE 18 03 02 00 00 C8 0A 
15:07:29:5651 Rx 2 0x1AE s 8 5D 06 A4 05 E2 01 99 03 
15:07:29:5661 Rx 2 0x1AF s 8 39 00 32 00 00 00 FB FF 
15:07:29:5661 Rx 2 0x1B0 s 8 00 00 24 00 E7 FF 03 00 
15:07:29:5661 Rx 2 0x1B1 s 8 00 00 00 00 00 00 00 00 
15:07:29:5661 Rx 2 0x1B2 s 8 00 00 00 00 00 00 00 00 
15:07:29:5671 Rx 2 0x1B3 s 8 00 0A 00 00 00 00 00 00 
15:07:29:5671 Rx 2 0x5C1 s 8 35 11 61 41 41 00 00 BB 
15:07:29:5671 Rx 2 0x5C2 s 8 02 0C 13 88 00 00 00 00 
15:07:29:5671 Rx 2 0x5C3 s 8 00 00 00 00 C5 24 31 C0 
15:07:29:5721 Rx 1 0xCFF0008 x 8 E8 3A C2 13 9A 01 50 35 
15:07:29:5731 Rx 1 0xCFF08EF x 8 09 00 00 00 C2 13 98 3A 
15:07:29:5741 Rx 2 0x5C3 s 8 00 00 00 00 C5 24 31 C0 
15:07:29:5741 Rx 2 0x5C1 s 8 35 11 61 41 41 00 00 BC 
15:07:29:5741 Rx 2 0x5C2 s 8 02 0C 13 88 00 00 00 00 
15:07:29:5821 Rx 1 0xCFF0008 x 8 F0 3A C2 13 AE 01 50 45 
15:07:29:5831 Rx 1 0xCFF08EF x 8 09 00 00 00 C3 13 98 3A 
15:07:29:5841 Rx 2 0x5C3 s 8 00 00 00 00 C5 24 31 C0 
15:07:29:5841 Rx 2 0x5C1 s 8 35 11 61 41 41 00 00 BD 
15:07:29:5841 Rx 2 0x5C2 s 8 02 0C 13 88 00 00 00 00 
15:07:29:5921 Rx 1 0xCFF0008 x 8 FB 3A C2 13 AE 01 50 55 
15:07:29:5931 Rx 1 0xCFF08EF x 8 09 00 00 00 C4 13 98 3A 
15:07:29:5941 Rx 2 0x5C3 s 8 00 00 00 00 C5 24 31 C0 
15:07:29:5941 Rx 2 0x5C1 s 8 35 11 61 41 41 00 00 BE 
15:07:29:5941 Rx 2 0x5C2 s 8 02 0C 13 88 00 00 00 00 
15:07:29:6021 Rx 1 0xCFF0008 x 8 06 3B C0 13 AE 01 50 65 
15:07:29:6031 Rx 1 0xCFF08EF x 8 09 00 00 00 C5 13 98 3A 
15:07:29:6031 Rx 1 0xCFF0108 x 8 62 4D 5C 02 2B 11 00 20 
15:07:29:6041 Rx 2 0x5C3 s 8 00 00 00 00 C5 24 31 C0 
15:07:29:6041 Rx 2 0x5C1 s 8 35 11 61 41 41 00 00 B0 
15:07:29:6041 Rx 2 0x5C2 s 8 02 0C 13 88 00 00 00 00 
15:07:29:6121 Rx 1 0xCFF0008 x 8 0F 3B BF 13 AE 01 50 75 
15:07:29:6131 Rx 1 0xCFF08EF x 8 09 00 00 00 C6 13 98 3A 
15:07:29:6141 Rx 2 0x061 s 8 00 02 7A 00 C6 4A 00 00 
15:07:29:6141 Rx 2 0x062 s 8 4D 62 00 00 00 00 00 00 
15:07:29:6141 Rx 2 0x1AA s 8 00 00 02 00 08 00 79 00 
15:07:29:6151 Rx 2 0x1AB s 8 EC FF 3D 00 E4 FF 3B 00 
15:07:29:6151 Rx 2 0x1AC s 8 DF 00 5B 01 DF 00 0F 01 
15:07:29:6151 Rx 2 0x1AD s 8 EE 18 03 02 00 00 91 0C 
15:07:29:6151 Rx 2 0x1AE s 8 5D 06 A4 05 E2 01 9B 03 
15:07:29:6161 Rx 2 0x1AF s 8 37 00 38 00 01 00 FB FF 
15:07:29:6161 Rx 2 0x1B0 s 8 00 00 29 00 F1 FF 03 00 
15:07:29:6161 Rx 2 0x1B1 s 8 00 00 00 00 00 00 00 00 
15:07:29:6161 Rx 2 0x1B2 s 8 00 00 00 00 00 00 00 00 
15:07:29:6171 Rx 2 0x1B3 s 8 00 0A 00 00 00 00 00 00 
15:07:29:6171 Rx 2 0x5C1 s 8 35 11 61 41 41 00 00 B1 
15:07:29:6171 Rx 2 0x5C2 s 8 02 0C 13 88 00 00 00 00 
15:07:29:6171 Rx 2 0x5C3 s 8 00 00 00 00 C5 24 31 C0 
15:07:29:6221 Rx 1 0xCFF0008 x 8 14 3B BF 13 D6 01 50 85 
15:07:29:6231 Rx 1 0xCFF08EF x 8 09 00 00 00 C6 13 98 3A 
15:07:29:6241 Rx 2 0x5C3 s 8 00 00 00 00 C5 24 31 C0 
15:07:29:6241 Rx 2 0x5C1 s 8 35 11 61 41 41 00 00 B2 
15:07:29:6241 Rx 2 0x5C2 s 8 02 0C 13 88 00 00 00 00 
15:07:29:6321 Rx 1 0xCFF0008 x 8 15 3B BF 13 D6 01 50 95 
15:07:29:6331 Rx 1 0xCFF08EF x 8 09 00 00 00 C7 13 98 3A 
15:07:29:6341 Rx 2 0x5C3 s 8 00 00 00 00 C5 24 31 C0 
15:07:29:6341 Rx 2 0x5C1 s 8 35 11 61 41 41 00 00 B3 
15:07:29:6341 Rx 2 0x5C2 s 8 02 0C 13 88 00 00 00 00 
15:07:29:6421 Rx 1 0xCFF0008 x 8 12 3B C1 13 D6 01 50 A5 
15:07:29:6431 Rx 1 0xCFF08EF x 8 09 00 00 00 C7 13 98 3A 
15:07:29:6441 Rx 2 0x5C3 s 8 00 00 00 00 C5 24 31 C0 
15:07:29:6441 Rx 2 0x5C1 s 8 35 11 61 41 41 00 00 B4 
15:07:29:6441 Rx 2 0x5C2 s 8 02 0C 13 88 00 00 00 00 
15:07:29:6521 Rx 1 0xCFF0008 x 8 0D 3B C3 13 CC 01 50 B5 
15:07:29:6531 Rx 1 0xCFF08EF x 8 09 00 00 00 C8 13 98 3A 
15:07:29:6531 Rx 1 0xCFF0108 x 8 62 4D 5C 02 2B 11 00 30 
15:07:29:6541 Rx 1 0xCFF0208 x 8 00 00 E9 03 5C 17 00 A0 
15:07:29:6551 Rx 1 0xCFF0308 x 8 00 00 00 00 00 5D 06 05 
15:07:29:6541 Rx 2 0x5C3 s 8 00 00 00 00 C5 24 31 C0 
15:07:29:6561 Rx 1 0xCFF0408 x 8 02 39 00 71 00 5D 06 00 
15:07:29:6541 Rx 2 0x5C1 s 8 35 11 61 41 41 00 00 B5 
15:07:29:6541 Rx 2 0x5C2 s 8 02 0C 13 88 00 00 00 00 
15:07:29:6621 Rx 1 0xCFF0008 x 8 08 3B C6 13 CC 01 50 C5 
15:07:29:6631 Rx 1 0xCFF08EF x 8 09 00 00 00 C9 13 98 3A 
15:07:29:6641 Rx 2 0x061 s 8 00 02 6F 00 C6 4A 00 00 
15:07:29:6641 Rx 2 0x062 s 8 4D 62 00 00 00 00 00 00 
15:07:29:6641 Rx 2 0x1AA s 8 FE FF 01 00 05 00 6F 00 
15:07:29:6651 Rx 2 0x1AB s 8 E8 FF 43 00 EE FF 42 00 
15:07:29:6651 Rx 2 0x1AC s 8 DE 00 59 01 DE 00 0B 01 
15:07:29:6651 Rx 2 0x1AD s 8 EE 18 03 02 00 00 2E 0C 
15:07:29:6651 Rx 2 0x1AE s 8 5D 06 A4 05 E2 01 96 03 
15:07:29:6661 Rx 2 0x1AF s 8 3E 00 39 00 02 00 FB FF 
15:07:29:6661 Rx 2 0x1B0 s 8 00 00 2C 00 FA FF 03 00 
15:07:29:6661 Rx 2 0x1B1 s 8 00 00 00 00 00 00 00 00 
15:07:29:6661 Rx 2 0x1B2 s 8 00 00 00 00 00 00 00 00 
15:07:29:6671 Rx 2 0x1B3 s 8 00 0A 00 00 00 00 00 00 
15:07:29:6671 Rx 2 0x5C1 s 8 35 11 61 41 41 00 00 B6 
15:07:29:6671 Rx 2 0x5C2 s 8 02 0C 13 88 00 00 00 00 
15:07:29:6671 Rx 2 0x5C3 s 8 00 00 00 00 C5 24 31 C0 
15:07:29:6721 Rx 1 0xCFF0008 x 8 04 3B C9 13 CC 01 50 D5 
15:07:29:6731 Rx 1 0xCFF08EF x 8 09 00 00 00 C9 13 98 3A 
15:07:29:6741 Rx 2 0x5C3 s 8 00 00 00 00 C5 24 31 C0 
15:07:29:6741 Rx 2 0x5C1 s 8 35 11 61 41 41 00 00 B7 
15:07:29:6741 Rx 2 0x5C2 s 8 02 0C 13 88 00 00 00 00 
15:07:29:6821 Rx 1 0xCFF0008 x 8 02 3B C9 13 D6 01 50 E5 
15:07:29:6831 Rx 1 0xCFF08EF x 8 09 00 00 00 C9 13 98 3A 
15:07:29:6841 Rx 2 0x5C3 s 8 00 00 00 00 C5 24 31 C0 
15:07:29:6841 Rx 2 0x5C1 s 8 35 11 61 41 41 00 00 B8 
15:07:29:6841 Rx 2 0x5C2 s 8 02 0C 13 88 00 00 00 00 
15:07:29:6921 Rx 1 0xCFF0008 x 8 03 3B C9 13 D6 01 50 F5 
15:07:29:6931 Rx 1 0xCFF08EF x 8 09 00 00 00 CA 13 98 3A 
15:07:29:6941 Rx 2 0x5C3 s 8 00 00 00 00 C5 24 31 C0 
15:07:29:6941 Rx 2 0x5C1 s 8 35 11 61 41 41 00 00 B9 
15:07:29:6941 Rx 2 0x5C2 s 8 02 0C 13 88 00 00 00 00 
15:07:29:7021 Rx 1 0xCFF0008 x 8 05 3B CA 13 D6 01 50 05 
15:07:29:7031 Rx 1 0xCFF08EF x 8 09 00 00 00 CA 13 98 3A 
15:07:29:7031 Rx 1 0xCFF0108 x 8 62 4D 5C 02 2B 11 00 40 
15:07:29:7041 Rx 2 0x5C3 s 8 00 00 00 00 C5 24 31 C0 
15:07:29:7041 Rx 2 0x5C1 s 8 35 11 61 41 41 00 00 BA 
15:07:29:7041 Rx 2 0x5C2 s 8 02 0C 13 88 00 00 00 00 
15:07:29:7121 Rx 1 0xCFF0008 x 8 08 3B C9 13 44 02 50 15 
15:07:29:7131 Rx 1 0xCFF08EF x 8 09 00 00 00 CB 13 98 3A 
15:07:29:7141 Rx 2 0x061 s 8 00 02 71 00 C6 4A 00 00 
15:07:29:7141 Rx 2 0x062 s 8 4D 62 00 00 00 00 00 00 
15:07:29:7141 Rx 2 0x1AA s 8 FC FF 01 00 09 00 71 00 
15:07:29:7151 Rx 2 0x1AB s 8 E7 FF 46 00 F0 FF 48 00 
15:07:29:7151 Rx 2 0x1AC s 8 DE 00 58 01 DE 00 0A 01 
15:07:29:7151 Rx 2 0x1AD s 8 EE 18 03 02 00 00 3F 0C 
15:07:29:7151 Rx 2 0x1AE s 8 5D 06 A4 05 E2 01 93 03 
15:07:29:7161 Rx 2 0x1AF s 8 41 00 45 00 00 00 FC FF 
15:07:29:7161 Rx 2 0x1B0 s 8 00 00 30 00 FE FF 03 00 
15:07:29:7161 Rx 2 0x1B1 s 8 00 00 00 00 00 00 00 00 
15:07:29:7161 Rx 2 0x1B2 s 8 00 00 00 00 00 00 00 00 
15:07:29:7171 Rx 2 0x1B3 s 8 00 0A 00 00 00 00 00 00 
15:07:29:7171 Rx 2 0x5C1 s 8 35 11 61 41 41 00 00 BB 
15:07:29:7171 Rx 2 0x5C2 s 8 02 0C 13 88 00 00 00 00 
15:07:29:7171 Rx 2 0x5C3 s 8 00 00 00 00 C5 24 31 C0 
15:07:29:7221 Rx 1 0xCFF0008 x 8 0C 3B C8 13 44 02 50 25 
15:07:29:7231 Rx 1 0xCFF08EF x 8 09 00 00 00 CB 13 98 3A 
15:07:29:7241 Rx 2 0x5C3 s 8 00 00 00 00 C5 24 31 C0 
15:07:29:7241 Rx 2 0x5C1 s 8 35 11 61 41 41 00 00 BC 
15:07:29:7241 Rx 2 0x5C2 s 8 02 0C 13 88 00 00 00 00 
15:07:29:7321 Rx 1 0xCFF0008 x 8 10 3B C8 13 44 02 50 35 
15:07:29:7331 Rx 1 0xCFF08EF x 8 09 00 00 00 CB 13 98 3A 
15:07:29:7341 Rx 2 0x5C3 s 8 00 00 00 00 C5 24 31 C0 
15:07:29:7341 Rx 2 0x5C1 s 8 35 11 61 41 41 00 00 BD 
15:07:29:7341 Rx 2 0x5C2 s 8 02 0C 13 88 00 00 00 00 
15:07:29:7421 Rx 1 0xCFF0008 x 8 13 3B C8 13 08 02 50 45 
15:07:29:7431 Rx 1 0xCFF08EF x 8 09 00 00 00 CC 13 98 3A 
15:07:29:7441 Rx 2 0x5C3 s 8 00 00 00 00 C5 24 31 C0 
15:07:29:7441 Rx 2 0x5C1 s 8 35 11 61 41 41 00 00 BE 
15:07:29:7441 Rx 2 0x5C2 s 8 02 0C 13 88 00 00 00 00 
15:07:29:7521 Rx 1 0xCFF0008 x 8 15 3B C9 13 08 02 50 55 
15:07:29:7531 Rx 1 0xCFF08EF x 8 09 00 00 00 CC 13 98 3A 
15:07:29:7531 Rx 1 0xCFF0108 x 8 62 4E 5C 02 2B 11 00 50 
15:07:29:7541 Rx 1 0xCFF0208 x 8 00 00 E9 03 5C 17 00 B0 
15:07:29:7551 Rx 1 0xCFF0308 x 8 00 00 00 00 00 5D 06 05 
15:07:29:7541 Rx 2 0x5C3 s 8 00 00 00 00 C5 24 31 C0 
15:07:29:7561 Rx 1 0xCFF0408 x 8 02 41 00 7E 00 5D 06 00 
15:07:29:7541 Rx 2 0x5C1 s 8 35 11 61 41 41 00 00 B0 
15:07:29:7541 Rx 2 0x5C2 s 8 02 0C 13 88 00 00 00 00 
15:07:29:7621 Rx 1 0xCFF0008 x 8 16 3B C9 13 08 02 50 65 
15:07:29:7631 Rx 1 0xCFF08EF x 8 09 00 00 00 CC 13 98 3A 
15:07:29:7641 Rx 2 0x061 s 8 00 02 7E 00 C5 4A 00 00 
15:07:29:7641 Rx 2 0x062 s 8 4D 62 00 00 00 00 00 00 
15:07:29:7641 Rx 2 0x1AA s 8 00 00 03 00 09 00 7E 00 
15:07:29:7651 Rx 2 0x1AB s 8 E7 FF 46 00 DF FF 41 00 
15:07:29:7651 Rx 2 0x1AC s 8 E1 00 5E 01 E1 00 13 01 
15:07:29:7651 Rx 2 0x1AD s 8 EE 18 03 02 00 00 BD 0C 
15:07:29:7651 Rx 2 0x1AE s 8 5D 06 A4 05 E2 01 93 03 
15:07:29:7661 Rx 2 0x1AF s 8 41 00 41 00 01 00 FC FF 
15:07:29:7661 Rx 2 0x1B0 s 8 00 00 32 00 03 00 03 00 
15:07:29:7661 Rx 2 0x1B1 s 8 00 00 00 00 00 00 00 00 
15:07:29:7661 Rx 2 0x1B2 s 8 00 00 00 00 00 00 00 00 
15:07:29:7671 Rx 2 0x1B3 s 8 00 0A 00 00 00 00 00 00 
15:07:29:7671 Rx 2 0x5C1 s 8 35 11 61 41 41 00 00 B1 
15:07:29:7671 Rx 2 0x5C2 s 8 02 0C 13 88 00 00 00 00 
15:07:29:7671 Rx 2 0x5C3 s 8 00 00 00 00 C5 24 31 C0 
15:07:29:7721 Rx 1 0xCFF0008 x 8 15 3B CA 13 08 02 50 75 
15:07:29:7731 Rx 1 0xCFF08EF x 8 09 00 00 00 CD 13 98 3A 
15:07:29:7741 Rx 2 0x5C3 s 8 00 00 00 00 C5 24 31 C0 
15:07:29:7741 Rx 2 0x5C1 s 8 35 11 61 41 41 00 00 B2 
15:07:29:7741 Rx 2 0x5C2 s 8 02 0C 13 88 00 00 00 00 
15:07:29:7821 Rx 1 0xCFF0008 x 8 16 3B CB 13 08 02 50 85 
15:07:29:7831 Rx 1 0xCFF08EF x 8 09 00 00 00 CD 13 98 3A 
15:07:29:7841 Rx 2 0x5C3 s 8 00 00 00 00 C5 24 31 C0 
15:07:29:7841 Rx 2 0x5C1 s 8 35 11 61 41 41 00 00 B3 
15:07:29:7841 Rx 2 0x5C2 s 8 02 0C 13 88 00 00 00 00 
15:07:29:7921 Rx 1 0xCFF0008 x 8 16 3B CB 13 08 02 50 95 
15:07:29:7931 Rx 1 0xCFF08EF x 8 09 00 00 00 CD 13 98 3A 
15:07:29:7941 Rx 2 0x5C3 s 8 00 00 00 00 C5 24 31 C0 
15:07:29:7941 Rx 2 0x5C1 s 8 35 11 61 41 41 00 00 B4 
15:07:29:7941 Rx 2 0x5C2 s 8 02 0C 13 88 00 00 00 00 
15:07:29:8021 Rx 1 0xCFF0008 x 8 17 3B CB 13 08 02 50 A5 
15:07:29:8031 Rx 1 0xCFF08EF x 8 09 00 00 00 CD 13 98 3A 
15:07:29:8031 Rx 1 0xCFF0108 x 8 62 4D 5C 02 2B 11 00 60 
15:07:29:8041 Rx 2 0x5C3 s 8 00 00 00 00 C5 24 31 C0 
15:07:29:8041 Rx 2 0x5C1 s 8 35 11 61 41 41 00 00 B5 
15:07:29:8041 Rx 2 0x5C2 s 8 02 0C 13 88 00 00 00 00 
15:07:29:8121 Rx 1 0xCFF0008 x 8 19 3B CB 13 08 02 50 B5 
15:07:29:8131 Rx 1 0xCFF08EF x 8 09 00 00 00 CD 13 98 3A 
15:07:29:8141 Rx 2 0x061 s 8 00 02 82 00 C5 4A 00 00 
15:07:29:8141 Rx 2 0x062 s 8 4D 62 00 00 00 00 00 00 
15:07:29:8141 Rx 2 0x1AA s 8 FB FF 01 00 0C 00 82 00 
15:07:29:8151 Rx 2 0x1AB s 8 E6 FF 47 00 EE FF 4B 00 
15:07:29:8151 Rx 2 0x1AC s 8 E1 00 5F 01 E1 00 15 01 
15:07:29:8151 Rx 2 0x1AD s 8 EE 18 03 02 00 00 E5 0C 
15:07:29:8151 Rx 2 0x1AE s 8 5D 06 A4 05 E2 01 92 03 
15:07:29:8161 Rx 2 0x1AF s 8 43 00 41 00 00 00 FC FF 
15:07:29:8161 Rx 2 0x1B0 s 8 00 00 34 00 07 00 03 00 
15:07:29:8161 Rx 2 0x1B1 s 8 00 00 00 00 00 00 00 00 
15:07:29:8161 Rx 2 0x1B2 s 8 00 00 00 00 00 00 00 00 
15:07:29:8171 Rx 2 0x1B3 s 8 00 0A 00 00 00 00 00 00 
15:07:29:8171 Rx 2 0x5C1 s 8 35 11 61 41 41 00 00 B6 
15:07:29:8171 Rx 2 0x5C2 s 8 02 0C 13 88 00 00 00 00 
15:07:29:8171 Rx 2 0x5C3 s 8 00 00 00 00 C5 24 31 C0 
15:07:29:8221 Rx 1 0xCFF0008 x 8 1B 3B CB 13 08 02 50 C5 
15:07:29:8231 Rx 1 0xCFF08EF x 8 09 00 00 00 CE 13 98 3A 
15:07:29:8241 Rx 2 0x5C3 s 8 00 00 00 00 C5 24 31 C0 
15:07:29:8241 Rx 2 0x5C1 s 8 35 11 61 41 41 00 00 B7 
15:07:29:8241 Rx 2 0x5C2 s 8 02 0C 13 88 00 00 00 00 
15:07:29:8321 Rx 1 0xCFF0008 x 8 1D 3B CC 13 08 02 50 D5 
15:07:29:8331 Rx 1 0xCFF08EF x 8 09 00 00 00 CE 13 98 3A 
15:07:29:8341 Rx 2 0x5C3 s 8 00 00 00 00 C5 24 31 C0 
15:07:29:8341 Rx 2 0x5C1 s 8 35 11 61 41 41 00 00 B8 
15:07:29:8341 Rx 2 0x5C2 s 8 02 0C 13 88 00 00 00 00 
15:07:29:8421 Rx 1 0xCFF0008 x 8 1F 3B CB 13 12 02 50 E5 
15:07:29:8431 Rx 1 0xCFF08EF x 8 09 00 00 00 CE 13 98 3A 
15:07:29:8441 Rx 2 0x5C3 s 8 00 00 00 00 C5 24 31 C0 
15:07:29:8441 Rx 2 0x5C1 s 8 35 11 61 41 41 00 00 B9 
15:07:29:8441 Rx 2 0x5C2 s 8 02 0C 13 88 00 00 00 00 
15:07:29:8521 Rx 1 0xCFF0008 x 8 22 3B CB 13 12 02 50 F5 
15:07:29:8531 Rx 1 0xCFF08EF x 8 09 00 00 00 CE 13 98 3A 
15:07:29:8531 Rx 1 0xCFF0108 x 8 62 4D 5C 02 2B 11 00 70 
15:07:29:8541 Rx 1 0xCFF0208 x 8 00 00 E9 03 5C 17 00 C0 
15:07:29:8551 Rx 1 0xCFF0308 x 8 00 00 00 00 00 5D 06 05 
15:07:29:8561 Rx 1 0xCFF0408 x 8 02 43 00 8D 00 5D 06 00 
15:07:29:8541 Rx 2 0x5C3 s 8 00 00 00 00 C5 24 31 C0 
15:07:29:8541 Rx 2 0x5C1 s 8 35 11 61 41 41 00 00 BA 
15:07:29:8541 Rx 2 0x5C2 s 8 02 0C 13 88 00 00 00 00 
15:07:29:8621 Rx 1 0xCFF0008 x 8 26 3B CA 13 1C 02 50 05 
15:07:29:8631 Rx 1 0xCFF08EF x 8 09 00 00 00 CE 13 98 3A 
15:07:29:8641 Rx 2 0x061 s 8 00 02 8F 00 C4 4A 00 00 
15:07:29:8641 Rx 2 0x062 s 8 4D 62 00 00 00 00 00 00 
15:07:29:8641 Rx 2 0x1AA s 8 FD FF 03 00 0C 00 8F 00 
15:07:29:8651 Rx 2 0x1AB s 8 E6 FF 47 00 E9 FF 48 00 
15:07:29:8651 Rx 2 0x1AC s 8 E4 00 64 01 E4 00 1C 01 
15:07:29:8651 Rx 2 0x1AD s 8 EE 18 03 02 00 00 66 0D 
15:07:29:8651 Rx 2 0x1AE s 8 5D 06 A4 05 E2 01 92 03 
15:07:29:8661 Rx 2 0x1AF s 8 42 00 43 00 01 00 FC FF 
15:07:29:8661 Rx 2 0x1B0 s 8 00 00 36 00 0D 00 03 00 
15:07:29:8661 Rx 2 0x1B1 s 8 00 00 00 00 00 00 00 00 
15:07:29:8661 Rx 2 0x1B2 s 8 00 00 00 00 00 00 00 00 
15:07:29:8671 Rx 2 0x1B3 s 8 00 0A 00 00 00 00 00 00 
15:07:29:8671 Rx 2 0x5C1 s 8 35 11 61 41 41 00 00 BB 
15:07:29:8671 Rx 2 0x5C2 s 8 02 0C 13 88 00 00 00 00 
15:07:29:8671 Rx 2 0x5C3 s 8 00 00 00 00 C5 24 31 C0 
15:07:29:8721 Rx 1 0xCFF0008 x 8 28 3B CA 13 1C 02 50 15 
15:07:29:8731 Rx 1 0x18E1F3EF x 8 00 00 00 00 00 00 00 00 
15:07:29:8731 Rx 1 0xCFF08EF x 8 09 00 00 00 CE 13 98 3A 
15:07:29:8741 Rx 2 0x5C3 s 8 00 00 00 00 C5 24 31 C0 
15:07:29:8741 Rx 2 0x5C1 s 8 35 11 61 41 41 00 00 BC 
15:07:29:8741 Rx 2 0x5C2 s 8 02 0C 13 88 00 00 00 00 
15:07:29:8821 Rx 1 0xCFF0008 x 8 28 3B CB 13 1C 02 50 25 
15:07:29:8831 Rx 1 0xCFF08EF x 8 09 00 00 00 CE 13 98 3A 
15:07:29:8841 Rx 2 0x5C3 s 8 00 00 00 00 C5 24 31 C0 
15:07:29:8841 Rx 2 0x5C1 s 8 35 11 61 41 41 00 00 BD 
15:07:29:8841 Rx 2 0x5C2 s 8 02 0C 13 88 00 00 00 00 
15:07:29:8921 Rx 1 0xCFF0008 x 8 28 3B CB 13 12 02 50 35 
15:07:29:8931 Rx 1 0xCFF08EF x 8 09 00 00 00 CF 13 98 3A 
15:07:29:8941 Rx 2 0x5C3 s 8 00 00 00 00 C5 24 31 C0 
15:07:29:8941 Rx 2 0x5C1 s 8 35 11 61 41 41 00 00 BE 
15:07:29:8941 Rx 2 0x5C2 s 8 02 0C 13 88 00 00 00 00 
15:07:29:9021 Rx 1 0xCFF0008 x 8 29 3B CD 13 12 02 50 45 
15:07:29:9031 Rx 1 0xCFF08EF x 8 09 00 00 00 CF 13 98 3A 
15:07:29:9031 Rx 1 0xCFF0108 x 8 62 4D 5C 02 2B 11 00 80 
15:07:29:9041 Rx 2 0x5C3 s 8 00 00 00 00 C5 24 31 C0 
15:07:29:9041 Rx 2 0x5C1 s 8 35 11 61 41 41 00 00 B0 
15:07:29:9041 Rx 2 0x5C2 s 8 02 0C 13 88 00 00 00 00 
15:07:29:9121 Rx 1 0xCFF0008 x 8 29 3B CD 13 12 02 50 55 
15:07:29:9131 Rx 1 0xCFF08EF x 8 09 00 00 00 CF 13 98 3A 
15:07:29:9141 Rx 2 0x061 s 8 00 02 92 00 C4 4A 00 00 
15:07:29:9141 Rx 2 0x062 s 8 4E 62 00 00 00 00 00 00 
15:07:29:9141 Rx 2 0x1AA s 8 FD FF 03 00 0D 00 91 00 
15:07:29:9151 Rx 2 0x1AB s 8 E5 FF 49 00 E7 FF 48 00 
15:07:29:9151 Rx 2 0x1AC s 8 E5 00 66 01 E5 00 1F 01 
15:07:29:9151 Rx 2 0x1AD s 8 EE 18 03 02 00 00 83 0D 
15:07:29:9151 Rx 2 0x1AE s 8 5D 06 A4 05 E2 01 91 03 
15:07:29:9161 Rx 2 0x1AF s 8 45 00 43 00 01 00 FC FF 
15:07:29:9161 Rx 2 0x1B0 s 8 00 00 37 00 11 00 03 00 
15:07:29:9161 Rx 2 0x1B1 s 8 00 00 00 00 00 00 00 00 
15:07:29:9161 Rx 2 0x1B2 s 8 00 00 00 00 00 00 00 00 
15:07:29:9171 Rx 2 0x1B3 s 8 00 0A 00 00 00 00 00 00 
15:07:29:9171 Rx 2 0x5C1 s 8 35 11 61 41 41 00 00 B1 
15:07:29:9171 Rx 2 0x5C2 s 8 02 0C 13 88 00 00 00 00 
15:07:29:9171 Rx 2 0x5C3 s 8 00 00 00 00 C5 24 31 C0 
15:07:29:9221 Rx 1 0xCFF0008 x 8 2B 3B CD 13 1C 02 50 65 
15:07:29:9231 Rx 1 0xCFF08EF x 8 09 00 00 00 CF 13 98 3A 
15:07:29:9241 Rx 2 0x5C3 s 8 00 00 00 00 C5 24 31 C0 
15:07:29:9241 Rx 2 0x5C1 s 8 35 11 61 41 41 00 00 B2 
15:07:29:9241 Rx 2 0x5C2 s 8 02 0C 13 88 00 00 00 00 
15:07:29:9321 Rx 1 0xCFF0008 x 8 2D 3B CC 13 1C 02 50 75 
15:07:29:9331 Rx 1 0xCFF08EF x 8 09 00 00 00 CF 13 98 3A 
15:07:29:9341 Rx 2 0x5C3 s 8 00 00 00 00 C5 24 31 C0 
15:07:29:9341 Rx 2 0x5C1 s 8 35 11 61 41 41 00 00 B3 
15:07:29:9341 Rx 2 0x5C2 s 8 02 0C 13 88 00 00 00 00 
15:07:29:9421 Rx 1 0xCFF0008 x 8 30 3B CC 13 1C 02 50 85 
15:07:29:9431 Rx 1 0xCFF08EF x 8 09 00 00 00 CF 13 98 3A 
15:07:29:9441 Rx 2 0x5C3 s 8 00 00 00 00 C5 24 31 C0 
15:07:29:9441 Rx 2 0x5C1 s 8 35 11 61 41 41 00 00 B4 
15:07:29:9441 Rx 2 0x5C2 s 8 02 0C 13 88 00 00 00 00 
15:07:29:9521 Rx 1 0xCFF0008 x 8 34 3B CB 13 26 02 50 95 
15:07:29:9531 Rx 1 0xCFF08EF x 8 09 00 00 00 CF 13 98 3A 
15:07:29:9531 Rx 1 0xCFF0108 x 8 62 4E 5C 02 2B 11 00 90 
15:07:29:9541 Rx 1 0xCFF0208 x 8 00 00 E9 03 5C 17 00 D0 
15:07:29:9551 Rx 1 0xCFF0308 x 8 00 00 00 00 00 5D 06 05 
15:07:29:9561 Rx 1 0xCFF0408 x 8 03 44 00 A0 00 5D 06 00 
15:07:29:9541 Rx 2 0x5C3 s 8 00 00 00 00 C5 24 31 C0 
15:07:29:9541 Rx 2 0x5C1 s 8 35 11 61 41 41 00 00 B5 
15:07:29:9541 Rx 2 0x5C2 s 8 02 0C 13 88 00 00 00 00 
15:07:29:9621 Rx 1 0xCFF0008 x 8 38 3B CB 13 26 02 50 A5 
15:07:29:9631 Rx 1 0xCFF08EF x 8 09 00 00 00 CF 13 98 3A 
15:07:29:9641 Rx 2 0x061 s 8 00 02 A2 00 C4 4A 00 00 
15:07:29:9641 Rx 2 0x062 s 8 4D 62 00 00 00 00 00 00 
15:07:29:9641 Rx 2 0x1AA s 8 FC FF 04 00 10 00 A2 00 
15:07:29:9651 Rx 2 0x1AB s 8 E6 FF 47 00 E9 FF 46 00 
15:07:29:9651 Rx 2 0x1AC s 8 E7 00 6B 01 E7 00 27 01 
15:07:29:9651 Rx 2 0x1AD s 8 EE 18 03 02 00 00 27 0E 
15:07:29:9721 Rx 1 0xCFF0008 x 8 3B 3B CB 13 26 02 50 B5 
15:07:29:9651 Rx 2 0x1AE s 8 5D 06 A4 05 E2 01 92 03 
15:07:29:9731 Rx 1 0xCFF08EF x 8 09 00 00 00 CF 13 98 3A 
15:07:29:9661 Rx 2 0x1AF s 8 43 00 44 00 01 00 FC FF 
15:07:29:9661 Rx 2 0x1B0 s 8 00 00 37 00 15 00 03 00 
15:07:29:9661 Rx 2 0x1B1 s 8 00 00 00 00 00 00 00 00 
15:07:29:9661 Rx 2 0x1B2 s 8 00 00 00 00 00 00 00 00 
15:07:29:9671 Rx 2 0x1B3 s 8 00 0A 00 00 00 00 00 00 
15:07:29:9671 Rx 2 0x5C1 s 8 35 11 61 41 41 00 00 B6 
15:07:29:9671 Rx 2 0x5C2 s 8 02 0C 13 88 00 00 00 00 
15:07:29:9671 Rx 2 0x5C3 s 8 00 00 00 00 C5 24 31 C0 
15:07:29:9741 Rx 2 0x5C3 s 8 00 00 00 00 C5 24 31 C0 
15:07:29:9741 Rx 2 0x5C1 s 8 35 11 61 41 41 00 00 B7 
15:07:29:9741 Rx 2 0x5C2 s 8 02 0C 13 88 00 00 00 00 
15:07:29:9821 Rx 1 0xCFF0008 x 8 3B 3B CB 13 1C 02 50 C5 
15:07:29:9831 Rx 1 0xCFF08EF x 8 09 00 00 00 CF 13 98 3A 
15:07:29:9841 Rx 2 0x5C3 s 8 00 00 00 00 C5 24 31 C0 
15:07:29:9841 Rx 2 0x5C1 s 8 35 11 61 41 41 00 00 B8 
15:07:29:9841 Rx 2 0x5C2 s 8 02 0C 13 88 00 00 00 00 
15:07:29:9921 Rx 1 0xCFF0008 x 8 3B 3B CC 13 1C 02 50 D5 
15:07:29:9931 Rx 1 0xCFF08EF x 8 09 00 00 00 CF 13 98 3A 
15:07:29:9941 Rx 2 0x5C3 s 8 00 00 00 00 C5 24 31 C0 
15:07:29:9941 Rx 2 0x5C1 s 8 35 11 61 41 41 00 00 B9 
15:07:29:9941 Rx 2 0x5C2 s 8 02 0C 13 88 00 00 00 00 
15:07:30:0021 Rx 1 0xCFF0008 x 8 3B 3B CC 13 1C 02 50 E5 
15:07:30:0031 Rx 1 0xCFF08EF x 8 09 00 00 00 D0 13 98 3A 
15:07:30:0031 Rx 1 0xCFF0108 x 8 62 4E 5C 02 2B 11 00 A0 
15:07:30:0041 Rx 2 0x5C3 s 8 00 00 00 00 C5 24 31 C0 
15:07:30:0041 Rx 2 0x5C1 s 8 35 11 61 41 41 00 00 BA 
15:07:30:0041 Rx 2 0x5C2 s 8 02 0C 13 88 00 00 00 00 
15:07:30:0121 Rx 1 0xCFF0008 x 8 3C 3B CE 13 12 02 50 F5 
15:07:30:0131 Rx 1 0xCFF08EF x 8 09 00 00 00 D0 13 98 3A 
15:07:30:0141 Rx 2 0x061 s 8 00 02 A4 00 C3 4A 00 00 
15:07:30:0141 Rx 2 0x062 s 8 4E 62 00 00 00 00 00 00 
15:07:30:0141 Rx 2 0x1AA s 8 FA FF 04 00 13 00 A4 00 
15:07:30:0151 Rx 2 0x1AB s 8 E4 FF 4A 00 ED FF 4D 00 
15:07:30:0151 Rx 2 0x1AC s 8 E8 00 6D 01 E8 00 2A 01 
15:07:30:0151 Rx 2 0x1AD s 8 EE 18 03 02 00 00 3F 0E 
15:07:30:0151 Rx 2 0x1AE s 8 5D 06 A4 05 E2 01 90 03 
15:07:30:0161 Rx 2 0x1AF s 8 46 00 42 00 00 00 FC FF 
15:07:30:0161 Rx 2 0x1B0 s 8 00 00 37 00 19 00 03 00 
15:07:30:0161 Rx 2 0x1B1 s 8 00 00 00 00 00 00 00 00 
15:07:30:0161 Rx 2 0x1B2 s 8 00 00 00 00 00 00 00 00 
15:07:30:0171 Rx 2 0x1B3 s 8 00 0A 00 00 00 00 00 00 
15:07:30:0171 Rx 2 0x5C1 s 8 35 11 61 41 41 00 00 BB 
15:07:30:0171 Rx 2 0x5C2 s 8 02 0C 13 88 00 00 00 00 
15:07:30:0171 Rx 2 0x5C3 s 8 00 00 00 00 C5 24 31 C0 
15:07:30:0221 Rx 1 0xCFF0008 x 8 3D 3B CE 13 12 02 50 05 
15:07:30:0231 Rx 1 0xCFF08EF x 8 09 00 00 00 D0 13 98 3A 
15:07:30:0241 Rx 2 0x5C3 s 8 00 00 00 00 C5 24 31 C0 
15:07:30:0241 Rx 2 0x5C1 s 8 35 11 61 41 41 00 00 BC 
15:07:30:0241 Rx 2 0x5C2 s 8 02 0C 13 88 00 00 00 00 
15:07:30:0321 Rx 1 0xCFF0008 x 8 3F 3B CE 13 1C 02 50 15 
15:07:30:0331 Rx 1 0xCFF08EF x 8 09 00 00 00 D0 13 98 3A 
15:07:30:0341 Rx 2 0x5C3 s 8 00 00 00 00 C5 24 31 C0 
15:07:30:0341 Rx 2 0x5C1 s 8 35 11 61 41 41 00 00 BD 
15:07:30:0341 Rx 2 0x5C2 s 8 02 0C 13 88 00 00 00 00 
15:07:30:0421 Rx 1 0xCFF0008 x 8 43 3B CD 13 1C 02 50 25 
15:07:30:0431 Rx 1 0xCFF08EF x 8 09 00 00 00 D0 13 98 3A 
15:07:30:0441 Rx 2 0x5C3 s 8 00 00 00 00 C5 24 31 C0 
15:07:30:0441 Rx 2 0x5C1 s 8 35 11 61 41 41 00 00 BE 
15:07:30:0441 Rx 2 0x5C2 s 8 02 0C 13 88 00 00 00 00 
15:07:30:0521 Rx 1 0xCFF0008 x 8 49 3B CC 13 1C 02 50 35 
15:07:30:0531 Rx 1 0xCFF08EF x 8 09 00 00 00 D0 13 98 3A 
15:07:30:0531 Rx 1 0xCFF0108 x 8 62 4E 5C 02 2B 11 00 B0 
15:07:30:0541 Rx 1 0xCFF0208 x 8 00 00 EA 03 5C 17 00 E0 
15:07:30:0551 Rx 1 0xCFF0308 x 8 00 00 00 00 00 5D 06 05 
15:07:30:0561 Rx 1 0xCFF0408 x 8 04 46 00 B6 00 5D 06 00 
15:07:30:0541 Rx 2 0x5C3 s 8 00 00 00 00 C5 24 31 C0 
15:07:30:0541 Rx 2 0x5C1 s 8 35 11 61 41 41 00 00 B0 
15:07:30:0541 Rx 2 0x5C2 s 8 02 0C 13 88 00 00 00 00 
15:07:30:0621 Rx 1 0xCFF0008 x 8 4E 3B CB 13 3A 02 50 45 
15:07:30:0631 Rx 1 0xCFF08EF x 8 09 00 00 00 D0 13 98 3A 
15:07:30:0641 Rx 2 0x061 s 8 00 02 B7 00 C2 4A 00 00 
15:07:30:0641 Rx 2 0x062 s 8 4E 62 00 00 00 00 00 00 
15:07:30:0641 Rx 2 0x1AA s 8 FD FF 06 00 14 00 B7 00 
15:07:30:0651 Rx 2 0x1AB s 8 E6 FF 48 00 E3 FF 47 00 
15:07:30:0651 Rx 2 0x1AC s 8 EC 00 75 01 EC 00 35 01 
15:07:30:0651 Rx 2 0x1AD s 8 EE 18 03 02 00 00 F8 0E 
15:07:30:0651 Rx 2 0x1AE s 8 5D 06 A4 05 E2 01 92 03 
15:07:30:0661 Rx 2 0x1AF s 8 43 00 46 00 01 00 FC FF 
15:07:30:0661 Rx 2 0x1B0 s 8 00 00 38 00 1D 00 03 00 
15:07:30:0661 Rx 2 0x1B1 s 8 00 00 00 00 00 00 00 00 
15:07:30:0661 Rx 2 0x1B2 s 8 00 00 00 00 00 00 00 00 
15:07:30:0671 Rx 2 0x1B3 s 8 00 0A 00 00 00 00 00 00 
15:07:30:0671 Rx 2 0x5C1 s 8 35 11 61 41 41 00 00 B1 
15:07:30:0671 Rx 2 0x5C2 s 8 02 0C 13 88 00 00 00 00 
15:07:30:0671 Rx 2 0x5C3 s 8 00 00 00 00 C5 24 31 C0 
15:07:30:0721 Rx 1 0xCFF0008 x 8 4F 3B CB 13 3A 02 50 55 
15:07:30:0731 Rx 1 0xCFF08EF x 8 09 00 00 00 D0 13 98 3A 
15:07:30:0741 Rx 2 0x5C3 s 8 00 00 00 00 C5 24 31 C0 
15:07:30:0741 Rx 2 0x5C1 s 8 35 11 61 41 41 00 00 B2 
15:07:30:0741 Rx 2 0x5C2 s 8 02 0C 13 88 00 00 00 00 
15:07:30:0821 Rx 1 0xCFF0008 x 8 4F 3B CC 13 3A 02 50 65 
15:07:30:0831 Rx 1 0xCFF08EF x 8 09 00 00 00 D0 13 98 3A 
15:07:30:0841 Rx 2 0x5C3 s 8 00 00 00 00 C5 24 31 C0 
15:07:30:0841 Rx 2 0x5C1 s 8 35 11 61 41 41 00 00 B3 
15:07:30:0841 Rx 2 0x5C2 s 8 02 0C 13 88 00 00 00 00 
15:07:30:0921 Rx 1 0xCFF0008 x 8 4F 3B CD 13 44 02 50 75 
15:07:30:0931 Rx 1 0xCFF08EF x 8 09 00 00 00 D0 13 98 3A 
15:07:30:0941 Rx 2 0x5C3 s 8 00 00 00 00 C5 24 31 C0 
15:07:30:0941 Rx 2 0x5C1 s 8 35 11 61 41 41 00 00 B4 
15:07:30:0941 Rx 2 0x5C2 s 8 02 0C 13 88 00 00 00 00 
15:07:30:1021 Rx 1 0xCFF0008 x 8 4F 3B CD 13 44 02 50 85 
15:07:30:1031 Rx 1 0xCFF08EF x 8 09 00 00 00 D0 13 98 3A 
15:07:30:1031 Rx 1 0xCFF0108 x 8 62 4E 5C 02 2B 11 00 C0 
15:07:30:1041 Rx 2 0x5C3 s 8 00 00 00 00 C5 24 31 C0 
15:07:30:1041 Rx 2 0x5C1 s 8 35 11 61 41 41 00 00 B5 
15:07:30:1041 Rx 2 0x5C2 s 8 02 0C 13 88 00 00 00 00 
15:07:30:1121 Rx 1 0xCFF0008 x 8 4F 3B CE 13 26 02 50 95 
15:07:30:1131 Rx 1 0xCFF08EF x 8 09 00 00 00 D0 13 98 3A 
15:07:30:1141 Rx 2 0x061 s 8 00 02 B7 00 C2 4A 00 00 
15:07:30:1141 Rx 2 0x062 s 8 4E 62 00 00 00 00 00 00 
15:07:30:1141 Rx 2 0x1AA s 8 FC FF 05 00 18 00 B7 00 
15:07:30:1151 Rx 2 0x1AB s 8 E4 FF 4A 00 E1 FF 4B 00 
15:07:30:1151 Rx 2 0x1AC s 8 EC 00 75 01 EC 00 35 01 
15:07:30:1151 Rx 2 0x1AD s 8 EE 18 03 02 00 00 FC 0E 
15:07:30:1151 Rx 2 0x1AE s 8 5D 06 A4 05 E2 01 90 03 
15:07:30:1161 Rx 2 0x1AF s 8 46 00 45 00 00 00 FD FF 
15:07:30:1161 Rx 2 0x1B0 s 8 00 00 38 00 21 00 03 00 
15:07:30:1161 Rx 2 0x1B1 s 8 00 00 00 00 00 00 00 00 
15:07:30:1161 Rx 2 0x1B2 s 8 00 00 00 00 00 00 00 00 
15:07:30:1171 Rx 2 0x1B3 s 8 00 0A 00 00 00 00 00 00 
15:07:30:1171 Rx 2 0x5C1 s 8 35 11 61 41 41 00 00 B6 
15:07:30:1171 Rx 2 0x5C2 s 8 02 0C 13 88 00 00 00 00 
15:07:30:1171 Rx 2 0x5C3 s 8 00 00 00 00 C5 24 31 C0 
15:07:30:1221 Rx 1 0xCFF0008 x 8 51 3B CE 13 26 02 50 A5 
15:07:30:1231 Rx 1 0xCFF08EF x 8 09 00 00 00 D0 13 98 3A 
15:07:30:1241 Rx 2 0x5C3 s 8 00 00 00 00 C5 24 31 C0 
15:07:30:1241 Rx 2 0x5C1 s 8 35 11 61 41 41 00 00 B7 
15:07:30:1241 Rx 2 0x5C2 s 8 02 0C 13 88 00 00 00 00 
15:07:30:1321 Rx 1 0xCFF0008 x 8 56 3B CD 13 26 02 50 B5 
15:07:30:1331 Rx 1 0xCFF08EF x 8 09 00 00 00 D0 13 98 3A 
15:07:30:1341 Rx 2 0x5C3 s 8 00 00 00 00 C5 24 31 C0 
15:07:30:1341 Rx 2 0x5C1 s 8 35 11 61 41 41 00 00 B8 
15:07:30:1341 Rx 2 0x5C2 s 8 02 0C 13 88 00 00 00 00 
15:07:30:1421 Rx 1 0xCFF0008 x 8 5A 3B CC 13 26 02 50 C5 
15:07:30:1431 Rx 1 0xCFF08EF x 8 09 00 00 00 D0 13 98 3A 
15:07:30:1441 Rx 2 0x5C3 s 8 00 00 00 00 C5 24 31 C0 
15:07:30:1441 Rx 2 0x5C1 s 8 35 11 61 41 41 00 00 B9 
15:07:30:1441 Rx 2 0x5C2 s 8 02 0C 13 88 00 00 00 00 
15:07:30:1521 Rx 1 0xCFF0008 x 8 5C 3B CC 13 26 02 50 D5 
15:07:30:1531 Rx 1 0xCFF08EF x 8 09 00 00 00 D0 13 98 3A 
15:07:30:1531 Rx 1 0xCFF0108 x 8 62 4E 5C 02 2B 11 00 D0 
15:07:30:1541 Rx 1 0xCFF0208 x 8 00 00 EA 03 5C 17 00 F0 
15:07:30:1551 Rx 1 0xCFF0308 x 8 00 00 00 00 00 5D 06 05 
15:07:30:1561 Rx 1 0xCFF0408 x 8 02 44 00 C4 00 5D 06 00 
15:07:30:1541 Rx 2 0x5C3 s 8 00 00 00 00 C5 24 31 C0 
15:07:30:1541 Rx 2 0x5C1 s 8 35 11 61 41 41 00 00 BA 
15:07:30:1541 Rx 2 0x5C2 s 8 02 0C 13 88 00 00 00 00 
15:07:30:1621 Rx 1 0xCFF0008 x 8 5C 3B CD 13 1C 02 50 E5 
15:07:30:1631 Rx 1 0xCFF08EF x 8 09 00 00 00 D0 13 98 3A 
15:07:30:1641 Rx 2 0x061 s 8 00 02 C4 00 C2 4A 00 00 
15:07:30:1641 Rx 2 0x062 s 8 4E 62 00 00 00 00 00 00 
15:07:30:1641 Rx 2 0x1AA s 8 F8 FF 06 00 19 00 C4 00 
15:07:30:1651 Rx 2 0x1AB s 8 E5 FF 49 00 EF FF 4A 00 
15:07:30:1651 Rx 2 0x1AC s 8 EF 00 7A 01 EF 00 3D 01 
15:07:30:1651 Rx 2 0x1AD s 8 EE 18 03 02 00 00 7B 0F 
15:07:30:1651 Rx 2 0x1AE s 8 5D 06 A4 05 E2 01 91 03 
15:07:30:1661 Rx 2 0x1AF s 8 45 00 44 00 00 00 FC FF 
15:07:30:1661 Rx 2 0x1B0 s 8 00 00 38 00 23 00 03 00 
15:07:30:1661 Rx 2 0x1B1 s 8 00 00 00 00 00 00 00 00 
15:07:30:1661 Rx 2 0x1B2 s 8 00 00 00 00 00 00 00 00 
15:07:30:1671 Rx 2 0x1B3 s 8 00 0A 00 00 00 00 00 00 
15:07:30:1671 Rx 2 0x5C1 s 8 35 11 61 41 41 00 00 BB 
15:07:30:1671 Rx 2 0x5C2 s 8 02 0C 13 88 00 00 00 00 
15:07:30:1671 Rx 2 0x5C3 s 8 00 00 00 00 C5 24 31 C0 
15:07:30:1721 Rx 1 0xCFF0008 x 8 5C 3B CD 13 1C 02 50 F5 
15:07:30:1731 Rx 1 0xCFF08EF x 8 09 00 00 00 D0 13 98 3A 
15:07:30:1741 Rx 2 0x5C3 s 8 00 00 00 00 C5 24 31 C0 
15:07:30:1741 Rx 2 0x5C1 s 8 35 11 61 41 41 00 00 BC 
15:07:30:1741 Rx 2 0x5C2 s 8 02 0C 13 88 00 00 00 00 
15:07:30:1821 Rx 1 0xCFF0008 x 8 5C 3B CE 13 1C 02 50 05 
15:07:30:1831 Rx 1 0xCFF08EF x 8 09 00 00 00 D0 13 98 3A 
15:07:30:1841 Rx 2 0x5C3 s 8 00 00 00 00 C5 24 31 C0 
15:07:30:1841 Rx 2 0x5C1 s 8 35 11 61 41 41 00 00 BD 
15:07:30:1841 Rx 2 0x5C2 s 8 02 0C 13 88 00 00 00 00 
15:07:30:1921 Rx 1 0xCFF0008 x 8 5D 3B CE 13 1C 02 50 15 
15:07:30:1931 Rx 1 0xCFF08EF x 8 09 00 00 00 D0 13 98 3A 
15:07:30:1941 Rx 2 0x5C3 s 8 00 00 00 00 C5 24 31 C0 
15:07:30:1941 Rx 2 0x5C1 s 8 35 11 61 41 41 00 00 BE 
15:07:30:1941 Rx 2 0x5C2 s 8 02 0C 13 88 00 00 00 00 
15:07:30:2021 Rx 1 0xCFF0008 x 8 60 3B CE 13 1C 02 50 25 
15:07:30:2031 Rx 1 0xCFF08EF x 8 09 00 00 00 D0 13 98 3A 
15:07:30:2031 Rx 1 0xCFF0108 x 8 62 4E 5C 02 2B 11 00 E0 
15:07:30:2041 Rx 2 0x5C3 s 8 00 00 00 00 C5 24 31 C0 
15:07:30:2041 Rx 2 0x5C1 s 8 35 11 61 41 41 00 00 BF 
15:07:30:2041 Rx 2 0x5C2 s 8 02 0C 13 88 00 00 00 00 
15:07:30:2121 Rx 1 0xCFF0008 x 8 66 3B CC 13 26 02 50 35 
15:07:30:2131 Rx 1 0xCFF08EF x 8 09 00 00 00 D0 13 98 3A 
15:07:30:2141 Rx 2 0x061 s 8 00 02 D1 00 C1 4A 00 00 
15:07:30:2141 Rx 2 0x062 s 8 4E 62 00 00 00 00 00 00 
15:07:30:2141 Rx 2 0x1AA s 8 F8 FF 07 00 1C 00 D0 00 
15:07:30:2151 Rx 2 0x1AB s 8 E5 FF 49 00 ED FF 49 00 
15:07:30:2151 Rx 2 0x1AC s 8 F1 00 7E 01 F1 00 44 01 
15:07:30:2151 Rx 2 0x1AD s 8 EE 18 03 02 00 00 A0 0F 
15:07:30:2151 Rx 2 0x1AE s 8 5D 06 A4 05 E2 01 91 03 
15:07:30:2161 Rx 2 0x1AF s 8 44 00 44 00 00 00 FD FF 
15:07:30:2161 Rx 2 0x1B0 s 8 00 00 39 00 26 00 03 00 
15:07:30:2161 Rx 2 0x1B1 s 8 00 00 00 00 00 00 00 00 
15:07:30:2161 Rx 2 0x1B2 s 8 00 00 00 00 00 00 00 00 
15:07:30:2171 Rx 2 0x1B3 s 8 00 0A 00 00 00 00 00 00 
15:07:30:2171 Rx 2 0x5C1 s 8 35 11 61 41 41 00 00 B0 
15:07:30:2171 Rx 2 0x5C2 s 8 02 0C 13 88 00 00 00 00 
15:07:30:2171 Rx 2 0x5C3 s 8 00 00 00 00 C5 24 31 C0 
15:07:30:2221 Rx 1 0xCFF0008 x 8 6B 3B CC 13 26 02 50 45 
15:07:30:2231 Rx 1 0xCFF08EF x 8 09 00 00 00 D0 13 98 3A 
15:07:30:2241 Rx 2 0x5C3 s 8 00 00 00 00 C5 24 31 C0 
15:07:30:2241 Rx 2 0x5C1 s 8 35 11 61 41 41 00 00 B1 
15:07:30:2241 Rx 2 0x5C2 s 8 02 0C 13 88 00 00 00 00 
15:07:30:2321 Rx 1 0xCFF0008 x 8 6D 3B CC 13 26 02 50 55 
15:07:30:2331 Rx 1 0xCFF08EF x 8 09 00 00 00 D0 13 98 3A 
15:07:30:2341 Rx 2 0x5C3 s 8 00 00 00 00 C5 24 31 C0 
15:07:30:2341 Rx 2 0x5C1 s 8 35 11 61 41 41 00 00 B2 
15:07:30:2341 Rx 2 0x5C2 s 8 02 0C 13 88 00 00 00 00 
15:07:30:2421 Rx 1 0xCFF0008 x 8 6D 3B CC 13 12 02 50 65 
15:07:30:2431 Rx 1 0xCFF08EF x 8 09 00 00 00 D0 13 98 3A 
15:07:30:2441 Rx 2 0x5C3 s 8 00 00 00 00 C5 24 31 C0 
15:07:30:2441 Rx 2 0x5C1 s 8 35 11 61 41 41 00 00 B3 
15:07:30:2441 Rx 2 0x5C2 s 8 02 0C 13 88 00 00 00 00 
15:07:30:2521 Rx 1 0xCFF0008 x 8 6C 3B CD 13 12 02 50 75 
15:07:30:2531 Rx 1 0xCFF08EF x 8 09 00 00 00 D0 13 98 3A 
15:07:30:2531 Rx 1 0xCFF0108 x 8 62 4E 5C 02 2B 11 00 F0 
15:07:30:2541 Rx 1 0xCFF0208 x 8 00 00 EA 03 52 17 00 00 
15:07:30:2551 Rx 1 0xCFF0308 x 8 00 00 00 00 00 5D 06 05 
15:07:30:2561 Rx 1 0xCFF0408 x 8 01 45 00 D3 00 5D 06 00 
15:07:30:2541 Rx 2 0x5C3 s 8 00 00 00 00 C5 24 31 C0 
15:07:30:2541 Rx 2 0x5C1 s 8 35 11 61 41 41 00 00 B4 
15:07:30:2541 Rx 2 0x5C2 s 8 02 0C 13 88 00 00 00 00 
15:07:30:2621 Rx 1 0xCFF0008 x 8 6B 3B CE 13 30 02 50 85 
15:07:30:2631 Rx 1 0xCFF08EF x 8 09 00 00 00 D0 13 98 3A 
15:07:30:2641 Rx 2 0x061 s 8 00 02 D2 00 BD 4A 00 00 
15:07:30:2641 Rx 2 0x062 s 8 4E 62 00 00 00 00 00 00 
15:07:30:2641 Rx 2 0x1AA s 8 FD FF 07 00 1C 00 D2 00 
15:07:30:2651 Rx 2 0x1AB s 8 E4 FF 4A 00 DC FF 4A 00 
15:07:30:2651 Rx 2 0x1AC s 8 F2 00 80 01 F2 00 46 01 
15:07:30:2651 Rx 2 0x1AD s 8 EE 18 03 02 00 00 A0 0F 
15:07:30:2651 Rx 2 0x1AE s 8 5D 06 A4 05 E2 01 90 03 
15:07:30:2661 Rx 2 0x1AF s 8 46 00 45 00 00 00 FD FF 
15:07:30:2661 Rx 2 0x1B0 s 8 00 00 39 00 28 00 03 00 
15:07:30:2661 Rx 2 0x1B1 s 8 00 00 00 00 00 00 00 00 
15:07:30:2661 Rx 2 0x1B2 s 8 00 00 00 00 00 00 00 00 
15:07:30:2671 Rx 2 0x1B3 s 8 00 0A 00 00 00 00 00 00 
15:07:30:2671 Rx 2 0x5C1 s 8 35 11 61 41 41 00 00 B5 
15:07:30:2671 Rx 2 0x5C2 s 8 02 0C 13 88 00 00 00 00 
15:07:30:2671 Rx 2 0x5C3 s 8 00 00 00 00 C5 24 31 C0 
15:07:30:2721 Rx 1 0xCFF0008 x 8 6C 3B CE 13 30 02 50 95 
15:07:30:2731 Rx 1 0xCFF08EF x 8 09 00 00 00 D0 13 98 3A 
15:07:30:2741 Rx 2 0x5C3 s 8 00 00 00 00 C5 24 31 C0 
15:07:30:2741 Rx 2 0x5C1 s 8 35 11 61 41 41 00 00 B6 
15:07:30:2741 Rx 2 0x5C2 s 8 02 0C 13 88 00 00 00 00 
15:07:30:2821 Rx 1 0xCFF0008 x 8 71 3B CD 13 30 02 50 A5 
15:07:30:2831 Rx 1 0xCFF08EF x 8 09 00 00 00 D0 13 98 3A 
15:07:30:2841 Rx 2 0x5C3 s 8 00 00 00 00 C5 24 31 C0 
15:07:30:2841 Rx 2 0x5C1 s 8 35 11 61 41 41 00 00 B7 
15:07:30:2841 Rx 2 0x5C2 s 8 02 0C 13 88 00 00 00 00 
15:07:30:2921 Rx 1 0xCFF0008 x 8 75 3B CC 13 44 02 50 B5 
15:07:30:2931 Rx 1 0xCFF08EF x 8 09 00 00 00 D0 13 98 3A 
15:07:30:2941 Rx 2 0x5C3 s 8 00 00 00 00 C5 24 31 C0 
15:07:30:2941 Rx 2 0x5C1 s 8 35 11 61 41 41 00 00 B8 
15:07:30:2941 Rx 2 0x5C2 s 8 02 0C 13 88 00 00 00 00 
15:07:30:3021 Rx 1 0xCFF0008 x 8 78 3B CC 13 44 02 50 C5 
15:07:30:3031 Rx 1 0xCFF08EF x 8 09 00 00 00 D0 13 98 3A 
15:07:30:3031 Rx 1 0xCFF0108 x 8 62 4E 5C 02 2B 11 00 00 
15:07:30:3041 Rx 2 0x5C3 s 8 00 00 00 00 C5 24 31 C0 
15:07:30:3041 Rx 2 0x5C1 s 8 35 11 61 41 41 00 00 B9 
15:07:30:3041 Rx 2 0x5C2 s 8 02 0C 13 88 00 00 00 00 
15:07:30:3121 Rx 1 0xCFF0008 x 8 78 3B CD 13 30 02 50 D5 
15:07:30:3131 Rx 1 0xCFF08EF x 8 09 00 00 00 D0 13 98 3A 
15:07:30:3141 Rx 2 0x061 s 8 00 02 E0 00 BB 4A 00 00 
15:07:30:3141 Rx 2 0x062 s 8 4E 62 00 00 00 00 00 00 
15:07:30:3141 Rx 2 0x1AA s 8 FB FF 08 00 1D 00 E0 00 
15:07:30:3151 Rx 2 0x1AB s 8 E5 FF 49 00 E6 FF 4A 00 
15:07:30:3151 Rx 2 0x1AC s 8 F4 00 85 01 F4 00 4E 01 
15:07:30:3151 Rx 2 0x1AD s 8 EE 18 03 02 00 00 A0 0F 
15:07:30:3151 Rx 2 0x1AE s 8 5D 06 A4 05 E2 01 90 03 
15:07:30:3161 Rx 2 0x1AF s 8 45 00 46 00 00 00 FD FF 
15:07:30:3161 Rx 2 0x1B0 s 8 00 00 39 00 29 00 03 00 
15:07:30:3161 Rx 2 0x1B1 s 8 00 00 00 00 00 00 00 00 
15:07:30:3161 Rx 2 0x1B2 s 8 00 00 00 00 00 00 00 00 
15:07:30:3171 Rx 2 0x1B3 s 8 00 0A 00 00 00 00 00 00 
15:07:30:3171 Rx 2 0x5C1 s 8 35 11 61 41 41 00 00 BA 
15:07:30:3171 Rx 2 0x5C2 s 8 02 0C 13 88 00 00 00 00 
15:07:30:3171 Rx 2 0x5C3 s 8 00 00 00 00 C5 24 31 C0 
15:07:30:3221 Rx 1 0xCFF0008 x 8 78 3B CE 13 30 02 50 E5 
15:07:30:3231 Rx 1 0xCFF08EF x 8 09 00 00 00 D0 13 98 3A 
15:07:30:3241 Rx 2 0x5C3 s 8 00 00 00 00 C5 24 31 C0 
15:07:30:3241 Rx 2 0x5C1 s 8 35 11 61 41 41 00 00 BB 
15:07:30:3241 Rx 2 0x5C2 s 8 02 0C 13 88 00 00 00 00 
15:07:30:3321 Rx 1 0xCFF0008 x 8 76 3B CF 13 30 02 50 F5 
15:07:30:3331 Rx 1 0xCFF08EF x 8 09 00 00 00 D0 13 98 3A 
15:07:30:3341 Rx 2 0x5C3 s 8 00 00 00 00 C5 24 31 C0 
15:07:30:3341 Rx 2 0x5C1 s 8 35 11 61 41 41 00 00 BC 
15:07:30:3341 Rx 2 0x5C2 s 8 02 0C 13 88 00 00 00 00 
15:07:30:3421 Rx 1 0xCFF0008 x 8 78 3B CE 13 26 02 50 05 
15:07:30:3431 Rx 1 0xCFF08EF x 8 09 00 00 00 D0 13 98 3A 
15:07:30:3441 Rx 2 0x5C3 s 8 00 00 00 00 C5 24 31 C0 
15:07:30:3441 Rx 2 0x5C1 s 8 35 11 61 41 41 00 00 BD 
15:07:30:3441 Rx 2 0x5C2 s 8 02 0C 13 88 00 00 00 00 
15:07:30:3521 Rx 1 0xCFF0008 x 8 7D 3B CD 13 26 02 50 15 
15:07:30:3531 Rx 1 0xCFF08EF x 8 09 00 00 00 D0 13 98 3A 
15:07:30:3531 Rx 1 0xCFF0108 x 8 62 4E 5C 02 2B 11 00 10 
15:07:30:3541 Rx 1 0xCFF0208 x 8 00 00 EA 03 52 17 00 10 
15:07:30:3551 Rx 1 0xCFF0308 x 8 00 00 00 00 00 5D 06 05 
15:07:30:3561 Rx 1 0xCFF0408 x 8 02 45 00 E8 00 5D 06 00 
15:07:30:3541 Rx 2 0x5C3 s 8 00 00 00 00 C5 24 31 C0 
15:07:30:3541 Rx 2 0x5C1 s 8 35 11 61 41 41 00 00 BE 
15:07:30:3541 Rx 2 0x5C2 s 8 02 0C 13 88 00 00 00 00 
15:07:30:3621 Rx 1 0xCFF0008 x 8 80 3B CD 13 26 02 50 25 
15:07:30:3631 Rx 1 0xCFF08EF x 8 09 00 00 00 D0 13 98 3A 
15:07:30:3641 Rx 2 0x061 s 8 00 02 E9 00 B9 4A 00 00 
15:07:30:3641 Rx 2 0x062 s 8 4E 62 00 00 00 00 00 00 
15:07:30:3641 Rx 2 0x1AA s 8 FC FF 08 00 1F 00 E9 00 
15:07:30:3651 Rx 2 0x1AB s 8 E5 FF 49 00 DB FF 4A 00 
15:07:30:3651 Rx 2 0x1AC s 8 F6 00 89 01 F6 00 53 01 
15:07:30:3651 Rx 2 0x1AD s 8 EE 18 03 02 00 00 A0 0F 
15:07:30:3651 Rx 2 0x1AE s 8 5D 06 A4 05 E2 01 90 03 
15:07:30:3661 Rx 2 0x1AF s 8 45 00 45 00 00 00 FD FF 
15:07:30:3661 Rx 2 0x1B0 s 8 00 00 39 00 2B 00 03 00 
15:07:30:3661 Rx 2 0x1B1 s 8 00 00 00 00 00 00 00 00 
15:07:30:3661 Rx 2 0x1B2 s 8 00 00 00 00 00 00 00 00 
15:07:30:3671 Rx 2 0x1B3 s 8 00 0A 00 00 00 00 00 00 
15:07:30:3671 Rx 2 0x5C1 s 8 35 11 61 41 41 00 00 B0 
15:07:30:3671 Rx 2 0x5C2 s 8 02 0C 13 88 00 00 00 00 
15:07:30:3671 Rx 2 0x5C3 s 8 00 00 00 00 C5 24 31 C0 
15:07:30:3721 Rx 1 0xCFF0008 x 8 82 3B CD 13 26 02 50 35 
15:07:30:3731 Rx 1 0xCFF08EF x 8 09 00 00 00 D0 13 98 3A 
15:07:30:3741 Rx 2 0x5C3 s 8 00 00 00 00 C5 24 31 C0 
15:07:30:3741 Rx 2 0x5C1 s 8 35 11 61 41 41 00 00 B1 
15:07:30:3741 Rx 2 0x5C2 s 8 02 0C 13 88 00 00 00 00 
15:07:30:3821 Rx 1 0xCFF0008 x 8 82 3B CE 13 26 02 50 45 
15:07:30:3831 Rx 1 0xCFF08EF x 8 09 00 00 00 D0 13 98 3A 
15:07:30:3841 Rx 2 0x5C3 s 8 00 00 00 00 C5 24 31 C0 
15:07:30:3841 Rx 2 0x5C1 s 8 35 11 61 41 41 00 00 B2 
15:07:30:3841 Rx 2 0x5C2 s 8 02 0C 13 88 00 00 00 00 
15:07:30:3921 Rx 1 0xCFF0008 x 8 81 3B CE 13 44 02 50 55 
15:07:30:3931 Rx 1 0xCFF08EF x 8 09 00 00 00 D0 13 98 3A 
15:07:30:3941 Rx 2 0x5C3 s 8 00 00 00 00 C5 24 31 C0 
15:07:30:3941 Rx 2 0x5C1 s 8 35 11 61 41 41 00 00 B3 
15:07:30:3941 Rx 2 0x5C2 s 8 02 0C 13 88 00 00 00 00 
15:07:30:4021 Rx 1 0xCFF0008 x 8 81 3B CF 13 44 02 50 65 
15:07:30:4031 Rx 1 0xCFF08EF x 8 09 00 00 00 D0 13 98 3A 
15:07:30:4031 Rx 1 0xCFF0108 x 8 62 4E 5C 02 2B 11 00 20 
15:07:30:4041 Rx 2 0x5C3 s 8 00 00 00 00 C5 24 31 C0 
15:07:30:4041 Rx 2 0x5C1 s 8 35 11 61 41 41 00 00 B4 
15:07:30:4041 Rx 2 0x5C2 s 8 02 0C 13 88 00 00 00 00 
15:07:30:4121 Rx 1 0xCFF0008 x 8 86 3B CE 13 30 02 50 75 
15:07:30:4131 Rx 1 0xCFF08EF x 8 09 00 00 00 D0 13 98 3A 
15:07:30:4141 Rx 2 0x061 s 8 00 02 F0 00 B8 4A 00 00 
15:07:30:4141 Rx 2 0x062 s 8 4E 62 00 00 00 00 00 00 
15:07:30:4141 Rx 2 0x1AA s 8 F7 FF 09 00 21 00 EF 00 
15:07:30:4151 Rx 2 0x1AB s 8 E4 FF 4A 00 EB FF 4B 00 
15:07:30:4151 Rx 2 0x1AC s 8 F7 00 8B 01 F7 00 56 01 
15:07:30:4151 Rx 2 0x1AD s 8 EE 18 03 02 00 00 A0 0F 
15:07:30:4151 Rx 2 0x1AE s 8 5D 06 A4 05 E2 01 90 03 
15:07:30:4161 Rx 2 0x1AF s 8 46 00 46 00 00 00 FD FF 
15:07:30:4161 Rx 2 0x1B0 s 8 00 00 39 00 2C 00 03 00 
15:07:30:4161 Rx 2 0x1B1 s 8 00 00 00 00 00 00 00 00 
15:07:30:4161 Rx 2 0x1B2 s 8 00 00 00 00 00 00 00 00 
15:07:30:4171 Rx 2 0x1B3 s 8 00 0A 00 00 00 00 00 00 
15:07:30:4171 Rx 2 0x5C1 s 8 35 11 61 41 41 00 00 B5 
15:07:30:4171 Rx 2 0x5C2 s 8 02 0C 13 88 00 00 00 00 
15:07:30:4171 Rx 2 0x5C3 s 8 00 00 00 00 C5 24 31 C0 
15:07:30:4221 Rx 1 0xCFF0008 x 8 8A 3B CD 13 30 02 50 85 
15:07:30:4231 Rx 1 0xCFF08EF x 8 09 00 00 00 D0 13 98 3A 
15:07:30:4241 Rx 2 0x5C3 s 8 00 00 00 00 C5 24 31 C0 
15:07:30:4241 Rx 2 0x5C1 s 8 35 11 61 41 41 00 00 B6 
15:07:30:4241 Rx 2 0x5C2 s 8 02 0C 13 88 00 00 00 00 
15:07:30:4321 Rx 1 0xCFF0008 x 8 8D 3B CD 13 30 02 50 95 
15:07:30:4331 Rx 1 0xCFF08EF x 8 09 00 00 00 D0 13 98 3A 
15:07:30:4341 Rx 2 0x5C3 s 8 00 00 00 00 C5 24 31 C0 
15:07:30:4341 Rx 2 0x5C1 s 8 35 11 61 41 41 00 00 B7 
15:07:30:4341 Rx 2 0x5C2 s 8 02 0C 13 88 00 00 00 00 
15:07:30:4421 Rx 1 0xCFF0008 x 8 8E 3B CD 13 26 02 50 A5 
15:07:30:4431 Rx 1 0xCFF08EF x 8 09 00 00 00 D0 13 98 3A 
15:07:30:4441 Rx 2 0x5C3 s 8 00 00 00 00 C5 24 31 C0 
15:07:30:4441 Rx 2 0x5C1 s 8 35 11 61 41 41 00 00 B8 
15:07:30:4441 Rx 2 0x5C2 s 8 02 0C 13 88 00 00 00 00 
15:07:30:4521 Rx 1 0xCFF0008 x 8 8D 3B CE 13 26 02 50 B5 
15:07:30:4531 Rx 1 0xCFF08EF x 8 09 00 00 00 D0 13 98 3A 
15:07:30:4531 Rx 1 0xCFF0108 x 8 62 4E 5C 02 2B 11 00 30 
15:07:30:4541 Rx 1 0xCFF0208 x 8 00 00 EA 03 52 17 00 20 
15:07:30:4551 Rx 1 0xCFF0308 x 8 00 00 00 00 00 5D 06 05 
15:07:30:4561 Rx 1 0xCFF0408 x 8 01 45 00 F4 00 5D 06 00 
15:07:30:4541 Rx 2 0x5C3 s 8 00 00 00 00 C5 24 31 C0 
15:07:30:4541 Rx 2 0x5C1 s 8 35 11 61 41 41 00 00 B9 
15:07:30:4541 Rx 2 0x5C2 s 8 02 0C 13 88 00 00 00 00 
15:07:30:4621 Rx 1 0xCFF0008 x 8 8C 3B CF 13 30 02 50 C5 
15:07:30:4631 Rx 1 0xCFF08EF x 8 09 00 00 00 D0 13 98 3A 
15:07:30:4641 Rx 2 0x061 s 8 00 02 F4 00 B7 4A 00 00 
15:07:30:4641 Rx 2 0x062 s 8 4E 62 00 00 00 00 00 00 
15:07:30:4641 Rx 2 0x1AA s 8 F8 FF 09 00 22 00 F4 00 
15:07:30:4651 Rx 2 0x1AB s 8 E4 FF 4B 00 EB FF 4C 00 
15:07:30:4651 Rx 2 0x1AC s 8 F8 00 8D 01 F8 00 5A 01 
15:07:30:4651 Rx 2 0x1AD s 8 EE 18 03 02 00 00 A0 0F 
15:07:30:4651 Rx 2 0x1AE s 8 5D 06 A4 05 E2 01 8F 03 
15:07:30:4661 Rx 2 0x1AF s 8 47 00 45 00 00 00 FD FF 
15:07:30:4661 Rx 2 0x1B0 s 8 00 00 39 00 2D 00 03 00 
15:07:30:4661 Rx 2 0x1B1 s 8 00 00 00 00 00 00 00 00 
15:07:30:4661 Rx 2 0x1B2 s 8 00 00 00 00 00 00 00 00 
15:07:30:4671 Rx 2 0x1B3 s 8 00 0A 00 00 00 00 00 00 
15:07:30:4671 Rx 2 0x5C1 s 8 35 11 61 41 41 00 00 BA 
15:07:30:4671 Rx 2 0x5C2 s 8 02 0C 13 88 00 00 00 00 
15:07:30:4671 Rx 2 0x5C3 s 8 00 00 00 00 C5 24 31 C0 
15:07:30:4721 Rx 1 0xCFF0008 x 8 90 3B CE 13 30 02 50 D5 
15:07:30:4731 Rx 1 0xCFF08EF x 8 09 00 00 00 D0 13 98 3A 
15:07:30:4741 Rx 2 0x5C3 s 8 00 00 00 00 C5 24 31 C0 
15:07:30:4741 Rx 2 0x5C1 s 8 35 11 61 41 41 00 00 BB 
15:07:30:4741 Rx 2 0x5C2 s 8 02 0C 13 88 00 00 00 00 
15:07:30:4821 Rx 1 0xCFF0008 x 8 95 3B CD 13 30 02 50 E5 
15:07:30:4831 Rx 1 0xCFF08EF x 8 09 00 00 00 D0 13 98 3A 
15:07:30:4841 Rx 2 0x5C3 s 8 00 00 00 00 C5 24 31 C0 
15:07:30:4841 Rx 2 0x5C1 s 8 35 11 61 41 41 00 00 BC 
15:07:30:4841 Rx 2 0x5C2 s 8 02 0C 13 88 00 00 00 00 
15:07:30:4921 Rx 1 0xCFF0008 x 8 98 3B CD 13 30 02 50 F5 
15:07:30:4931 Rx 1 0xCFF08EF x 8 09 00 00 00 D0 13 98 3A 
15:07:30:4941 Rx 2 0x5C3 s 8 00 00 00 00 C5 24 31 C0 
15:07:30:4941 Rx 2 0x5C1 s 8 35 11 61 41 41 00 00 BD 
15:07:30:4941 Rx 2 0x5C2 s 8 02 0C 13 88 00 00 00 00 
15:07:30:5021 Rx 1 0xCFF0008 x 8 99 3B CD 13 30 02 50 05 
15:07:30:5031 Rx 1 0xCFF08EF x 8 09 00 00 00 D0 13 98 3A 
15:07:30:5031 Rx 1 0xCFF0108 x 8 62 4E 5C 02 2B 11 00 40 
15:07:30:5041 Rx 2 0x5C3 s 8 00 00 00 00 C5 24 31 C0 
15:07:30:5041 Rx 2 0x5C1 s 8 35 11 61 41 41 00 00 BE 
15:07:30:5041 Rx 2 0x5C2 s 8 02 0C 13 88 00 00 00 00 
15:07:30:5121 Rx 1 0xCFF0008 x 8 99 3B CE 13 3A 02 50 15 
15:07:30:5131 Rx 1 0xCFF08EF x 8 09 00 00 00 D0 13 98 3A 
15:07:30:5141 Rx 2 0x061 s 8 00 02 01 01 B7 4A 00 00 
15:07:30:5141 Rx 2 0x062 s 8 4E 62 00 00 00 00 00 00 
15:07:30:5141 Rx 2 0x1AA s 8 F7 FF 0A 00 25 00 01 01 
15:07:30:5151 Rx 2 0x1AB s 8 E4 FF 4A 00 ED FF 4B 00 
15:07:30:5151 Rx 2 0x1AC s 8 FB 00 93 01 FB 00 62 01 
15:07:30:5151 Rx 2 0x1AD s 8 EE 18 03 02 00 00 A0 0F 
15:07:30:5151 Rx 2 0x1AE s 8 5D 06 A4 05 E2 01 90 03 
15:07:30:5161 Rx 2 0x1AF s 8 45 00 46 00 00 00 FD FF 
15:07:30:5161 Rx 2 0x1B0 s 8 00 00 39 00 2E 00 03 00 
15:07:30:5161 Rx 2 0x1B1 s 8 00 00 00 00 00 00 00 00 
15:07:30:5161 Rx 2 0x1B2 s 8 00 00 00 00 00 00 00 00 
15:07:30:5171 Rx 2 0x1B3 s 8 00 0A 00 00 00 00 00 00 
15:07:30:5171 Rx 2 0x5C1 s 8 35 11 61 41 41 00 00 B0 
15:07:30:5171 Rx 2 0x5C2 s 8 02 0C 13 88 00 00 00 00 
15:07:30:5171 Rx 2 0x5C3 s 8 00 00 00 00 C5 24 31 C0 
15:07:30:5221 Rx 1 0xCFF0008 x 8 99 3B CE 13 3A 02 50 25 
15:07:30:5231 Rx 1 0xCFF08EF x 8 09 00 00 00 D0 13 98 3A 
15:07:30:5241 Rx 2 0x5C3 s 8 00 00 00 00 C5 24 31 C0 
15:07:30:5241 Rx 2 0x5C1 s 8 35 11 61 41 41 00 00 B1 
15:07:30:5241 Rx 2 0x5C2 s 8 02 0C 13 88 00 00 00 00 
15:07:30:5321 Rx 1 0xCFF0008 x 8 9E 3B CD 13 3A 02 50 35 
15:07:30:5331 Rx 1 0xCFF08EF x 8 09 00 00 00 D0 13 98 3A 
15:07:30:5341 Rx 2 0x5C3 s 8 00 00 00 00 C5 24 31 C0 
15:07:30:5341 Rx 2 0x5C1 s 8 35 11 61 41 41 00 00 B2 
15:07:30:5341 Rx 2 0x5C2 s 8 02 0C 13 88 00 00 00 00 
15:07:30:5421 Rx 1 0xCFF0008 x 8 A2 3B CC 13 1C 02 50 45 
15:07:30:5431 Rx 1 0xCFF08EF x 8 09 00 00 00 D0 13 98 3A 
15:07:30:5441 Rx 2 0x5C3 s 8 00 00 00 00 C5 24 31 C0 
15:07:30:5441 Rx 2 0x5C1 s 8 35 11 61 41 41 00 00 B3 
15:07:30:5441 Rx 2 0x5C2 s 8 02 0C 13 88 00 00 00 00 
15:07:30:5521 Rx 1 0xCFF0008 x 8 A4 3B CD 13 1C 02 50 55 
15:07:30:5531 Rx 1 0xCFF08EF x 8 09 00 00 00 D0 13 98 3A 
15:07:30:5531 Rx 1 0xCFF0108 x 8 62 4E 5C 02 2B 11 00 50 
15:07:30:5541 Rx 1 0xCFF0208 x 8 00 00 EB 03 52 17 00 30 
15:07:30:5551 Rx 1 0xCFF0308 x 8 00 00 00 00 00 5D 06 05 
15:07:30:5541 Rx 2 0x5C3 s 8 00 00 00 00 C5 24 31 C0 
15:07:30:5561 Rx 1 0xCFF0408 x 8 02 45 00 0D 01 5D 06 00 
15:07:30:5541 Rx 2 0x5C1 s 8 35 11 61 41 41 00 00 B4 
15:07:30:5541 Rx 2 0x5C2 s 8 02 0C 13 88 00 00 00 00 
15:07:30:5621 Rx 1 0xCFF0008 x 8 A5 3B CD 13 30 02 50 65 
15:07:30:5631 Rx 1 0xCFF08EF x 8 09 00 00 00 D0 13 98 3A 
15:07:30:5641 Rx 2 0x061 s 8 00 02 0D 01 B6 4A 00 00 
15:07:30:5641 Rx 2 0x062 s 8 4E 62 00 00 00 00 00 00 
15:07:30:5641 Rx 2 0x1AA s 8 FB FF 0B 00 26 00 0D 01 
15:07:30:5651 Rx 2 0x1AB s 8 E4 FF 49 00 DB FF 48 00 
15:07:30:5651 Rx 2 0x1AC s 8 FD 00 97 01 FD 00 69 01 
15:07:30:5651 Rx 2 0x1AD s 8 EE 18 03 02 00 00 A0 0F 
15:07:30:5651 Rx 2 0x1AE s 8 5D 06 A4 05 E2 01 90 03 
15:07:30:5661 Rx 2 0x1AF s 8 45 00 45 00 00 00 FD FF 
15:07:30:5661 Rx 2 0x1B0 s 8 00 00 39 00 2E 00 03 00 
15:07:30:5661 Rx 2 0x1B1 s 8 00 00 00 00 00 00 00 00 
15:07:30:5661 Rx 2 0x1B2 s 8 00 00 00 00 00 00 00 00 
15:07:30:5671 Rx 2 0x1B3 s 8 00 0A 00 00 00 00 00 00 
15:07:30:5671 Rx 2 0x5C1 s 8 35 11 61 41 41 00 00 B5 
15:07:30:5671 Rx 2 0x5C2 s 8 02 0C 13 88 00 00 00 00 
15:07:30:5671 Rx 2 0x5C3 s 8 00 00 00 00 C5 24 31 C0 
15:07:30:5721 Rx 1 0xCFF0008 x 8 A3 3B CE 13 30 02 50 75 
15:07:30:5731 Rx 1 0xCFF08EF x 8 09 00 00 00 D0 13 98 3A 
15:07:30:5741 Rx 2 0x5C3 s 8 00 00 00 00 C5 24 31 C0 
15:07:30:5741 Rx 2 0x5C1 s 8 35 11 61 41 41 00 00 B6 
15:07:30:5741 Rx 2 0x5C2 s 8 02 0C 13 88 00 00 00 00 
15:07:30:5821 Rx 1 0xCFF0008 x 8 A4 3B CE 13 30 02 50 85 
15:07:30:5831 Rx 1 0xCFF08EF x 8 09 00 00 00 D0 13 98 3A 
15:07:30:5841 Rx 2 0x5C3 s 8 00 00 00 00 C5 24 31 C0 
15:07:30:5841 Rx 2 0x5C1 s 8 35 11 61 41 41 00 00 B7 
15:07:30:5841 Rx 2 0x5C2 s 8 02 0C 13 88 00 00 00 00 
15:07:30:5921 Rx 1 0xCFF0008 x 8 AA 3B CD 13 3A 02 50 95 
15:07:30:5931 Rx 1 0xCFF08EF x 8 09 00 00 00 D0 13 98 3A 
15:07:30:5941 Rx 2 0x5C3 s 8 00 00 00 00 C5 24 31 C0 
15:07:30:5941 Rx 2 0x5C1 s 8 35 11 61 41 41 00 00 B8 
15:07:30:5941 Rx 2 0x5C2 s 8 02 0C 13 88 00 00 00 00 
15:07:30:6021 Rx 1 0xCFF0008 x 8 AD 3B CD 13 3A 02 50 A5 
15:07:30:6031 Rx 1 0xCFF08EF x 8 09 00 00 00 D0 13 98 3A 
15:07:30:6031 Rx 1 0xCFF0108 x 8 62 4E 5C 02 2B 11 00 60 
15:07:30:6041 Rx 2 0x5C3 s 8 00 00 00 00 C5 24 31 C0 
15:07:30:6041 Rx 2 0x5C1 s 8 35 11 61 41 41 00 00 B9 
15:07:30:6041 Rx 2 0x5C2 s 8 02 0C 13 88 00 00 00 00 
15:07:30:6121 Rx 1 0xCFF0008 x 8 AF 3B CD 13 1C 02 50 B5 
15:07:30:6131 Rx 1 0xCFF08EF x 8 09 00 00 00 D0 13 98 3A 
15:07:30:6141 Rx 2 0x061 s 8 00 02 17 01 B6 4A 00 00 
15:07:30:6141 Rx 2 0x062 s 8 4E 62 00 00 00 00 00 00 
15:07:30:6141 Rx 2 0x1AA s 8 F8 FF 0B 00 27 00 17 01 
15:07:30:6151 Rx 2 0x1AB s 8 E4 FF 49 00 E8 FF 49 00 
15:07:30:6151 Rx 2 0x1AC s 8 FF 00 9B 01 FF 00 6F 01 
15:07:30:6151 Rx 2 0x1AD s 8 EE 18 03 02 00 00 A0 0F 
15:07:30:6151 Rx 2 0x1AE s 8 5D 06 A4 05 E2 01 90 03 
15:07:30:6161 Rx 2 0x1AF s 8 45 00 45 00 00 00 FD FF 
15:07:30:6161 Rx 2 0x1B0 s 8 00 00 39 00 2F 00 03 00 
15:07:30:6161 Rx 2 0x1B1 s 8 00 00 00 00 00 00 00 00 
15:07:30:6161 Rx 2 0x1B2 s 8 00 00 00 00 00 00 00 00 
15:07:30:6171 Rx 2 0x1B3 s 8 00 0A 00 00 00 00 00 00 
15:07:30:6171 Rx 2 0x5C1 s 8 35 11 61 41 41 00 00 BA 
15:07:30:6171 Rx 2 0x5C2 s 8 02 0C 13 88 00 00 00 00 
15:07:30:6171 Rx 2 0x5C3 s 8 00 00 00 00 C5 24 31 C0 
15:07:30:6221 Rx 1 0xCFF0008 x 8 AF 3B CE 13 1C 02 50 C5 
15:07:30:6231 Rx 1 0xCFF08EF x 8 09 00 00 00 D0 13 98 3A 
15:07:30:6241 Rx 2 0x5C3 s 8 00 00 00 00 C5 24 31 C0 
15:07:30:6241 Rx 2 0x5C1 s 8 35 11 61 41 41 00 00 BB 
15:07:30:6241 Rx 2 0x5C2 s 8 02 0C 13 88 00 00 00 00 
15:07:30:6321 Rx 1 0xCFF0008 x 8 AE 3B CE 13 1C 02 50 D5 
15:07:30:6331 Rx 1 0xCFF08EF x 8 09 00 00 00 D0 13 98 3A 
15:07:30:6341 Rx 2 0x5C3 s 8 00 00 00 00 C5 24 31 C0 
15:07:30:6341 Rx 2 0x5C1 s 8 35 11 61 41 41 00 00 BC 
15:07:30:6341 Rx 2 0x5C2 s 8 02 0C 13 88 00 00 00 00 
15:07:30:6421 Rx 1 0xCFF0008 x 8 B2 3B CD 13 1C 02 50 E5 
15:07:30:6431 Rx 1 0xCFF08EF x 8 09 00 00 00 D0 13 98 3A 
15:07:30:6441 Rx 2 0x5C3 s 8 00 00 00 00 C5 24 31 C0 
15:07:30:6441 Rx 2 0x5C1 s 8 35 11 61 41 41 00 00 BD 
15:07:30:6441 Rx 2 0x5C2 s 8 02 0C 13 88 00 00 00 00 
15:07:30:6521 Rx 1 0xCFF0008 x 8 B6 3B CD 13 1C 02 50 F5 
15:07:30:6531 Rx 1 0xCFF08EF x 8 09 00 00 00 D0 13 98 3A 
15:07:30:6531 Rx 1 0xCFF0108 x 8 62 4E 5C 02 2B 11 00 70 
15:07:30:6541 Rx 1 0xCFF0208 x 8 00 00 EB 03 52 17 00 40 
15:07:30:6551 Rx 1 0xCFF0308 x 8 00 00 00 00 00 5D 06 05 
15:07:30:6561 Rx 1 0xCFF0408 x 8 02 45 00 20 01 5D 06 00 
15:07:30:6541 Rx 2 0x5C3 s 8 00 00 00 00 C5 24 31 C0 
15:07:30:6541 Rx 2 0x5C1 s 8 35 11 61 41 41 00 00 BE 
15:07:30:6541 Rx 2 0x5C2 s 8 02 0C 13 88 00 00 00 00 
15:07:30:6621 Rx 1 0xCFF0008 x 8 B8 3B CD 13 30 02 50 05 
15:07:30:6631 Rx 1 0xCFF08EF x 8 09 00 00 00 D0 13 98 3A 
15:07:30:6641 Rx 2 0x061 s 8 00 02 20 01 B5 4A 00 00 
15:07:30:6641 Rx 2 0x062 s 8 4E 62 00 00 00 00 00 00 
15:07:30:6641 Rx 2 0x1AA s 8 FA FF 0C 00 29 00 20 01 
15:07:30:6651 Rx 2 0x1AB s 8 E4 FF 49 00 E1 FF 48 00 
15:07:30:6651 Rx 2 0x1AC s 8 01 01 9F 01 01 01 75 01 
15:07:30:6651 Rx 2 0x1AD s 8 EE 18 03 02 00 00 A0 0F 
15:07:30:6651 Rx 2 0x1AE s 8 5D 06 A4 05 E2 01 90 03 
15:07:30:6661 Rx 2 0x1AF s 8 45 00 45 00 00 00 FC FF 
15:07:30:6661 Rx 2 0x1B0 s 8 00 00 39 00 30 00 03 00 
15:07:30:6661 Rx 2 0x1B1 s 8 00 00 00 00 00 00 00 00 
15:07:30:6661 Rx 2 0x1B2 s 8 00 00 00 00 00 00 00 00 
15:07:30:6671 Rx 2 0x1B3 s 8 00 0A 00 00 00 00 00 00 
15:07:30:6671 Rx 2 0x5C1 s 8 35 11 61 41 41 00 00 B0 
15:07:30:6671 Rx 2 0x5C2 s 8 02 0C 13 88 00 00 00 00 
15:07:30:6671 Rx 2 0x5C3 s 8 00 00 00 00 C5 24 31 C0 
15:07:30:6721 Rx 1 0xCFF0008 x 8 B9 3B CE 13 30 02 50 15 
15:07:30:6731 Rx 1 0xCFF08EF x 8 09 00 00 00 CF 13 98 3A 
15:07:30:6741 Rx 2 0x5C3 s 8 00 00 00 00 C5 24 31 C0 
15:07:30:6741 Rx 2 0x5C1 s 8 35 11 61 41 41 00 00 B1 
15:07:30:6741 Rx 2 0x5C2 s 8 02 0C 13 88 00 00 00 00 
15:07:30:6821 Rx 1 0xCFF0008 x 8 B8 3B CD 13 30 02 50 25 
15:07:30:6831 Rx 1 0xCFF08EF x 8 09 00 00 00 CF 13 98 3A 
15:07:30:6841 Rx 2 0x5C3 s 8 00 00 00 00 C5 24 31 C0 
15:07:30:6841 Rx 2 0x5C1 s 8 35 11 61 41 41 00 00 B2 
15:07:30:6841 Rx 2 0x5C2 s 8 02 0C 13 88 00 00 00 00 
15:07:30:6921 Rx 1 0xCFF0008 x 8 BB 3B CD 13 30 02 50 35 
15:07:30:6931 Rx 1 0xCFF08EF x 8 09 00 00 00 CE 13 98 3A 
15:07:30:6941 Rx 2 0x5C3 s 8 00 00 00 00 C5 24 31 C0 
15:07:30:6941 Rx 2 0x5C1 s 8 35 11 61 41 41 00 00 B3 
15:07:30:6941 Rx 2 0x5C2 s 8 02 0C 13 88 00 00 00 00 
15:07:30:7021 Rx 1 0xCFF0008 x 8 BF 3B CB 13 30 02 50 45 
15:07:30:7031 Rx 1 0xCFF08EF x 8 09 00 00 00 CE 13 98 3A 
15:07:30:7031 Rx 1 0xCFF0108 x 8 62 4E 5C 02 2B 11 00 80 
15:07:30:7041 Rx 2 0x5C3 s 8 00 00 00 00 C5 24 31 C0 
15:07:30:7041 Rx 2 0x5C1 s 8 35 11 61 41 41 00 00 B4 
15:07:30:7041 Rx 2 0x5C2 s 8 02 0C 13 88 00 00 00 00 
15:07:30:7121 Rx 1 0xCFF0008 x 8 C1 3B CB 13 44 02 50 55 
15:07:30:7131 Rx 1 0xCFF08EF x 8 09 00 00 00 CE 13 98 3A 
15:07:30:7141 Rx 2 0x061 s 8 00 02 28 01 B5 4A 00 00 
15:07:30:7141 Rx 2 0x062 s 8 4E 62 00 00 00 00 00 00 
15:07:30:7141 Rx 2 0x1AA s 8 FA FF 0C 00 2A 00 29 01 
15:07:30:7151 Rx 2 0x1AB s 8 E5 FF 48 00 DD FF 47 00 
15:07:30:7151 Rx 2 0x1AC s 8 03 01 A2 01 03 01 7A 01 
15:07:30:7151 Rx 2 0x1AD s 8 EE 18 03 02 00 00 A0 0F 
15:07:30:7151 Rx 2 0x1AE s 8 5D 06 A4 05 E2 01 92 03 
15:07:30:7161 Rx 2 0x1AF s 8 43 00 47 00 00 00 FC FF 
15:07:30:7161 Rx 2 0x1B0 s 8 00 00 39 00 30 00 03 00 
15:07:30:7161 Rx 2 0x1B1 s 8 00 00 00 00 00 00 00 00 
15:07:30:7161 Rx 2 0x1B2 s 8 00 00 00 00 00 00 00 00 
15:07:30:7171 Rx 2 0x1B3 s 8 00 0A 00 00 00 00 00 00 
15:07:30:7171 Rx 2 0x5C1 s 8 35 11 61 41 41 00 00 B5 
15:07:30:7171 Rx 2 0x5C2 s 8 02 0C 13 88 00 00 00 00 
15:07:30:7171 Rx 2 0x5C3 s 8 00 00 00 00 C5 24 31 C0 
15:07:30:7221 Rx 1 0xCFF0008 x 8 C0 3B CC 13 44 02 50 65 
15:07:30:7231 Rx 1 0xCFF08EF x 8 09 00 00 00 CD 13 98 3A 
15:07:30:7241 Rx 2 0x5C3 s 8 00 00 00 00 C5 24 31 C0 
15:07:30:7241 Rx 2 0x5C1 s 8 35 11 61 41 41 00 00 B6 
15:07:30:7241 Rx 2 0x5C2 s 8 02 0C 13 88 00 00 00 00 
15:07:30:7321 Rx 1 0xCFF0008 x 8 BD 3B CC 13 44 02 50 75 
15:07:30:7331 Rx 1 0xCFF08EF x 8 09 00 00 00 CD 13 98 3A 
15:07:30:7341 Rx 2 0x5C3 s 8 00 00 00 00 C5 24 31 C0 
15:07:30:7341 Rx 2 0x5C1 s 8 35 11 61 41 41 00 00 B7 
15:07:30:7341 Rx 2 0x5C2 s 8 02 0C 13 88 00 00 00 00 
15:07:30:7421 Rx 1 0xCFF0008 x 8 BF 3B CC 13 30 02 50 85 
15:07:30:7431 Rx 1 0xCFF08EF x 8 09 00 00 00 CD 13 98 3A 
15:07:30:7441 Rx 2 0x5C3 s 8 00 00 00 00 C5 24 31 C0 
15:07:30:7441 Rx 2 0x5C1 s 8 35 11 61 41 41 00 00 B8 
15:07:30:7441 Rx 2 0x5C2 s 8 02 0C 13 88 00 00 00 00 
15:07:30:7521 Rx 1 0xCFF0008 x 8 C3 3B CB 13 30 02 50 95 
15:07:30:7531 Rx 1 0xCFF08EF x 8 09 00 00 00 CC 13 98 3A 
15:07:30:7531 Rx 1 0xCFF0108 x 8 62 4E 5C 02 2B 11 00 90 
15:07:30:7541 Rx 1 0xCFF0208 x 8 00 00 EB 03 52 17 00 50 
15:07:30:7551 Rx 1 0xCFF0308 x 8 00 00 00 00 00 5D 06 05 
15:07:30:7561 Rx 1 0xCFF0408 x 8 01 47 00 2D 01 5D 06 00 
15:07:30:7541 Rx 2 0x5C3 s 8 00 00 00 00 C5 24 31 C0 
15:07:30:7541 Rx 2 0x5C1 s 8 35 11 61 41 41 00 00 B9 
15:07:30:7541 Rx 2 0x5C2 s 8 02 0C 13 88 00 00 00 00 
15:07:30:7621 Rx 1 0xCFF0008 x 8 C5 3B CA 13 3A 02 50 A5 
15:07:30:7631 Rx 1 0xCFF08EF x 8 09 00 00 00 CC 13 98 3A 
15:07:30:7641 Rx 2 0x061 s 8 00 02 2E 01 B5 4A 00 00 
15:07:30:7641 Rx 2 0x062 s 8 4E 62 00 00 00 00 00 00 
15:07:30:7641 Rx 2 0x1AA s 8 FA FF 0C 00 2B 00 2D 01 
15:07:30:7651 Rx 2 0x1AB s 8 E6 FF 47 00 DE FF 47 00 
15:07:30:7651 Rx 2 0x1AC s 8 04 01 A4 01 04 01 7D 01 
15:07:30:7651 Rx 2 0x1AD s 8 EE 18 03 02 00 00 A0 0F 
15:07:30:7651 Rx 2 0x1AE s 8 5D 06 A4 05 E2 01 92 03 
15:07:30:7661 Rx 2 0x1AF s 8 42 00 47 00 00 00 FC FF 
15:07:30:7661 Rx 2 0x1B0 s 8 00 00 38 00 30 00 03 00 
15:07:30:7661 Rx 2 0x1B1 s 8 00 00 00 00 00 00 00 00 
15:07:30:7661 Rx 2 0x1B2 s 8 00 00 00 00 00 00 00 00 
15:07:30:7671 Rx 2 0x1B3 s 8 00 0A 00 00 00 00 00 00 
15:07:30:7671 Rx 2 0x5C1 s 8 35 11 61 41 41 00 00 BA 
15:07:30:7671 Rx 2 0x5C2 s 8 02 0C 13 88 00 00 00 00 
15:07:30:7671 Rx 2 0x5C3 s 8 00 00 00 00 C5 24 31 C0 
15:07:30:7721 Rx 1 0xCFF0008 x 8 C6 3B CA 13 3A 02 50 B5 
15:07:30:7731 Rx 1 0xCFF08EF x 8 09 00 00 00 CC 13 98 3A 
15:07:30:7741 Rx 2 0x5C3 s 8 00 00 00 00 C5 24 31 C0 
15:07:30:7741 Rx 2 0x5C1 s 8 35 11 61 41 41 00 00 BB 
15:07:30:7741 Rx 2 0x5C2 s 8 02 0C 13 88 00 00 00 00 
15:07:30:7821 Rx 1 0xCFF0008 x 8 C4 3B CB 13 3A 02 50 C5 
15:07:30:7831 Rx 1 0xCFF08EF x 8 09 00 00 00 CC 13 98 3A 
15:07:30:7841 Rx 2 0x5C3 s 8 00 00 00 00 C5 24 31 C0 
15:07:30:7841 Rx 2 0x5C1 s 8 35 11 61 41 41 00 00 BC 
15:07:30:7841 Rx 2 0x5C2 s 8 02 0C 13 88 00 00 00 00 
15:07:30:7921 Rx 1 0xCFF0008 x 8 C7 3B CB 13 30 02 50 D5 
15:07:30:7931 Rx 1 0xCFF08EF x 8 09 00 00 00 CC 13 98 3A 
15:07:30:7941 Rx 2 0x5C3 s 8 00 00 00 00 C5 24 31 C0 
15:07:30:7941 Rx 2 0x5C1 s 8 35 11 61 41 41 00 00 BD 
15:07:30:7941 Rx 2 0x5C2 s 8 02 0C 13 88 00 00 00 00 
15:07:30:8021 Rx 1 0xCFF0008 x 8 CB 3B CA 13 30 02 50 E5 
15:07:30:8031 Rx 1 0xCFF08EF x 8 09 00 00 00 CB 13 98 3A 
15:07:30:8031 Rx 1 0xCFF0108 x 8 62 4E 5C 02 2B 11 00 A0 
15:07:30:8041 Rx 2 0x5C3 s 8 00 00 00 00 C5 24 31 C0 
15:07:30:8041 Rx 2 0x5C1 s 8 35 11 61 41 41 00 00 BE 
15:07:30:8041 Rx 2 0x5C2 s 8 02 0C 13 88 00 00 00 00 
15:07:30:8121 Rx 1 0xCFF0008 x 8 CD 3B C9 13 30 02 50 F5 
15:07:30:8131 Rx 1 0xCFF08EF x 8 09 00 00 00 CB 13 98 3A 
15:07:30:8141 Rx 2 0x061 s 8 00 02 36 01 B5 4A 00 00 
15:07:30:8141 Rx 2 0x062 s 8 4E 62 00 00 00 00 00 00 
15:07:30:8141 Rx 2 0x1AA s 8 FA FF 0D 00 2C 00 36 01 
15:07:30:8151 Rx 2 0x1AB s 8 E7 FF 46 00 DF FF 45 00 
15:07:30:8151 Rx 2 0x1AC s 8 06 01 A8 01 06 01 82 01 
15:07:30:8151 Rx 2 0x1AD s 8 EE 18 03 02 00 00 A0 0F 
15:07:30:8151 Rx 2 0x1AE s 8 5D 06 A4 05 E2 01 93 03 
15:07:30:8161 Rx 2 0x1AF s 8 41 00 46 00 00 00 FC FF 
15:07:30:8161 Rx 2 0x1B0 s 8 00 00 37 00 30 00 03 00 
15:07:30:8161 Rx 2 0x1B1 s 8 00 00 00 00 00 00 00 00 
15:07:30:8161 Rx 2 0x1B2 s 8 00 00 00 00 00 00 00 00 
15:07:30:8171 Rx 2 0x1B3 s 8 00 0A 00 00 00 00 00 00 
15:07:30:8171 Rx 2 0x5C1 s 8 35 11 61 41 41 00 00 B0 
15:07:30:8171 Rx 2 0x5C2 s 8 02 0C 13 88 00 00 00 00 
15:07:30:8171 Rx 2 0x5C3 s 8 00 00 00 00 C5 24 31 C0 
15:07:30:8221 Rx 1 0xCFF0008 x 8 CE 3B C9 13 30 02 50 05 
15:07:30:8231 Rx 1 0xCFF08EF x 8 09 00 00 00 CB 13 98 3A 
15:07:30:8241 Rx 2 0x5C3 s 8 00 00 00 00 C5 24 31 C0 
15:07:30:8241 Rx 2 0x5C1 s 8 35 11 61 41 41 00 00 B1 
15:07:30:8241 Rx 2 0x5C2 s 8 02 0C 13 88 00 00 00 00 
15:07:30:8321 Rx 1 0xCFF0008 x 8 CC 3B CA 13 30 02 50 15 
15:07:30:8331 Rx 1 0xCFF08EF x 8 09 00 00 00 CB 13 98 3A 
15:07:30:8341 Rx 2 0x5C3 s 8 00 00 00 00 C5 24 31 C0 
15:07:30:8341 Rx 2 0x5C1 s 8 35 11 61 41 41 00 00 B2 
15:07:30:8341 Rx 2 0x5C2 s 8 02 0C 13 88 00 00 00 00 
15:07:30:8421 Rx 1 0xCFF0008 x 8 CF 3B CA 13 1C 02 50 25 
15:07:30:8431 Rx 1 0xCFF08EF x 8 09 00 00 00 CB 13 98 3A 
15:07:30:8441 Rx 2 0x5C3 s 8 00 00 00 00 C5 24 31 C0 
15:07:30:8441 Rx 2 0x5C1 s 8 35 11 61 41 41 00 00 B3 
15:07:30:8441 Rx 2 0x5C2 s 8 02 0C 13 88 00 00 00 00 
15:07:30:8521 Rx 1 0xCFF0008 x 8 D3 3B C9 13 1C 02 50 35 
15:07:30:8531 Rx 1 0xCFF08EF x 8 09 00 00 00 CA 13 98 3A 
15:07:30:8531 Rx 1 0xCFF0108 x 8 62 4E 5C 02 2B 11 00 B0 
15:07:30:8541 Rx 1 0xCFF0208 x 8 00 00 EB 03 52 17 00 60 
15:07:30:8551 Rx 1 0xCFF0308 x 8 00 00 00 00 00 5D 06 05 
15:07:30:8541 Rx 2 0x5C3 s 8 00 00 00 00 C5 24 31 C0 
15:07:30:8561 Rx 1 0xCFF0408 x 8 01 43 00 3D 01 5D 06 00 
15:07:30:8541 Rx 2 0x5C1 s 8 35 11 61 41 41 00 00 B4 
15:07:30:8541 Rx 2 0x5C2 s 8 02 0C 13 88 00 00 00 00 
15:07:30:8621 Rx 1 0xCFF0008 x 8 D5 3B C8 13 12 02 50 45 
15:07:30:8631 Rx 1 0xCFF08EF x 8 09 00 00 00 CA 13 98 3A 
15:07:30:8641 Rx 2 0x061 s 8 00 02 3D 01 B5 4A 00 00 
15:07:30:8641 Rx 2 0x062 s 8 4E 62 00 00 00 00 00 00 
15:07:30:8641 Rx 2 0x1AA s 8 F8 FF 0D 00 2D 00 3D 01 
15:07:30:8651 Rx 2 0x1AB s 8 E7 FF 45 00 E7 FF 45 00 
15:07:30:8651 Rx 2 0x1AC s 8 07 01 AA 01 07 01 86 01 
15:07:30:8651 Rx 2 0x1AD s 8 EE 18 03 02 00 00 A0 0F 
15:07:30:8651 Rx 2 0x1AE s 8 5D 06 A4 05 E2 01 94 03 
15:07:30:8661 Rx 2 0x1AF s 8 40 00 43 00 00 00 FC FF 
15:07:30:8661 Rx 2 0x1B0 s 8 00 00 36 00 30 00 03 00 
15:07:30:8661 Rx 2 0x1B1 s 8 00 00 00 00 00 00 00 00 
15:07:30:8661 Rx 2 0x1B2 s 8 00 00 00 00 00 00 00 00 
15:07:30:8671 Rx 2 0x1B3 s 8 00 0A 00 00 00 00 00 00 
15:07:30:8671 Rx 2 0x5C1 s 8 35 11 61 41 41 00 00 B5 
15:07:30:8671 Rx 2 0x5C2 s 8 02 0C 13 88 00 00 00 00 
15:07:30:8671 Rx 2 0x5C3 s 8 00 00 00 00 C5 24 31 C0 
15:07:30:8721 Rx 1 0xCFF0008 x 8 D5 3B C9 13 12 02 50 55 
15:07:30:8731 Rx 1 0x18E1F3EF x 8 00 00 00 00 00 00 00 00 
15:07:30:8731 Rx 1 0xCFF08EF x 8 09 00 00 00 CA 13 98 3A 
15:07:30:8741 Rx 2 0x5C3 s 8 00 00 00 00 C5 24 31 C0 
15:07:30:8741 Rx 2 0x5C1 s 8 35 11 61 41 41 00 00 B6 
15:07:30:8741 Rx 2 0x5C2 s 8 02 0C 13 88 00 00 00 00 
15:07:30:8821 Rx 1 0xCFF0008 x 8 D4 3B C9 13 12 02 50 65 
15:07:30:8831 Rx 1 0xCFF08EF x 8 09 00 00 00 CA 13 98 3A 
15:07:30:8841 Rx 2 0x5C3 s 8 00 00 00 00 C5 24 31 C0 
15:07:30:8841 Rx 2 0x5C1 s 8 35 11 61 41 41 00 00 B7 
15:07:30:8841 Rx 2 0x5C2 s 8 02 0C 13 88 00 00 00 00 
15:07:30:8921 Rx 1 0xCFF0008 x 8 D8 3B C8 13 08 02 50 75 
15:07:30:8931 Rx 1 0xCFF08EF x 8 09 00 00 00 CA 13 98 3A 
15:07:30:8941 Rx 2 0x5C3 s 8 00 00 00 00 C5 24 31 C0 
15:07:30:8941 Rx 2 0x5C1 s 8 35 11 61 41 41 00 00 B8 
15:07:30:8941 Rx 2 0x5C2 s 8 02 0C 13 88 00 00 00 00 
15:07:30:9021 Rx 1 0xCFF0008 x 8 DB 3B C8 13 08 02 50 85 
15:07:30:9031 Rx 1 0xCFF08EF x 8 09 00 00 00 CA 13 98 3A 
15:07:30:9031 Rx 1 0xCFF0108 x 8 62 4E 5C 02 2B 11 00 C0 
15:07:30:9041 Rx 2 0x5C3 s 8 00 00 00 00 C5 24 31 C0 
15:07:30:9041 Rx 2 0x5C1 s 8 35 11 61 41 41 00 00 B9 
15:07:30:9041 Rx 2 0x5C2 s 8 02 0C 13 88 00 00 00 00 
15:07:30:9121 Rx 1 0xCFF0008 x 8 DD 3B C8 13 08 02 50 95 
15:07:30:9131 Rx 1 0xCFF08EF x 8 09 00 00 00 CA 13 98 3A 
15:07:30:9141 Rx 2 0x061 s 8 00 02 45 01 B5 4A 00 00 
15:07:30:9141 Rx 2 0x062 s 8 4E 62 00 00 00 00 00 00 
15:07:30:9141 Rx 2 0x1AA s 8 F5 FF 0D 00 2F 00 45 01 
15:07:30:9151 Rx 2 0x1AB s 8 E7 FF 45 00 EF FF 45 00 
15:07:30:9151 Rx 2 0x1AC s 8 09 01 AE 01 09 01 8B 01 
15:07:30:9151 Rx 2 0x1AD s 8 EE 18 03 02 00 00 A0 0F 
15:07:30:9151 Rx 2 0x1AE s 8 5D 06 A4 05 E2 01 94 03 
15:07:30:9161 Rx 2 0x1AF s 8 40 00 41 00 00 00 FC FF 
15:07:30:9161 Rx 2 0x1B0 s 8 00 00 36 00 2F 00 03 00 
15:07:30:9161 Rx 2 0x1B1 s 8 00 00 00 00 00 00 00 00 
15:07:30:9161 Rx 2 0x1B2 s 8 00 00 00 00 00 00 00 00 
15:07:30:9171 Rx 2 0x1B3 s 8 00 0A 00 00 00 00 00 00 
15:07:30:9171 Rx 2 0x5C1 s 8 35 11 61 41 41 00 00 BA 
15:07:30:9171 Rx 2 0x5C2 s 8 02 0C 13 88 00 00 00 00 
15:07:30:9171 Rx 2 0x5C3 s 8 00 00 00 00 C5 24 31 C0 
15:07:30:9221 Rx 1 0xCFF0008 x 8 DC 3B C9 13 08 02 50 A5 
15:07:30:9231 Rx 1 0xCFF08EF x 8 09 00 00 00 CA 13 98 3A 
15:07:30:9241 Rx 2 0x5C3 s 8 00 00 00 00 C5 24 31 C0 
15:07:30:9241 Rx 2 0x5C1 s 8 35 11 61 41 41 00 00 BB 
15:07:30:9241 Rx 2 0x5C2 s 8 02 0C 13 88 00 00 00 00 
15:07:30:9321 Rx 1 0xCFF0008 x 8 DD 3B C9 13 08 02 50 B5 
15:07:30:9331 Rx 1 0xCFF08EF x 8 09 00 00 00 CA 13 98 3A 
15:07:30:9341 Rx 2 0x5C3 s 8 00 00 00 00 C5 24 31 C0 
15:07:30:9341 Rx 2 0x5C1 s 8 35 11 61 41 41 00 00 BC 
15:07:30:9341 Rx 2 0x5C2 s 8 02 0C 13 88 00 00 00 00 
15:07:30:9421 Rx 1 0xCFF0008 x 8 E3 3B C8 13 F4 01 50 C5 
15:07:30:9431 Rx 1 0xCFF08EF x 8 09 00 00 00 CA 13 98 3A 
15:07:30:9441 Rx 2 0x5C3 s 8 00 00 00 00 C5 24 31 C0 
15:07:30:9441 Rx 2 0x5C1 s 8 35 11 61 41 41 00 00 BD 
15:07:30:9451 Rx 2 0x5C2 s 8 02 0C 13 88 00 00 00 00 
15:07:30:9521 Rx 1 0xCFF0008 x 8 E5 3B C8 13 F4 01 50 D5 
15:07:30:9531 Rx 1 0xCFF08EF x 8 09 00 00 00 C9 13 98 3A 
15:07:30:9531 Rx 1 0xCFF0108 x 8 62 4E 5C 02 2B 11 00 D0 
15:07:30:9541 Rx 1 0xCFF0208 x 8 00 00 EB 03 52 17 00 70 
15:07:30:9551 Rx 1 0xCFF0308 x 8 00 00 00 00 00 5D 06 05 
15:07:30:9561 Rx 1 0xCFF0408 x 8 01 42 00 4E 01 5D 06 00 
15:07:30:9541 Rx 2 0x5C3 s 8 00 00 00 00 C5 24 31 C0 
15:07:30:9541 Rx 2 0x5C1 s 8 35 11 61 41 41 00 00 BE 
15:07:30:9541 Rx 2 0x5C2 s 8 02 0C 13 88 00 00 00 00 
15:07:30:9621 Rx 1 0xCFF0008 x 8 E6 3B C7 13 1C 02 50 E5 
15:07:30:9631 Rx 1 0xCFF08EF x 8 09 00 00 00 C9 13 98 3A 
15:07:30:9641 Rx 2 0x061 s 8 00 02 4D 01 B5 4A 00 00 
15:07:30:9641 Rx 2 0x062 s 8 4E 62 00 00 00 00 00 00 
15:07:30:9641 Rx 2 0x1AA s 8 F8 FF 0E 00 30 00 4E 01 
15:07:30:9651 Rx 2 0x1AB s 8 E8 FF 44 00 E7 FF 42 00 
15:07:30:9651 Rx 2 0x1AC s 8 0A 01 B1 01 0A 01 90 01 
15:07:30:9651 Rx 2 0x1AD s 8 EE 18 03 02 00 00 A0 0F 
15:07:30:9651 Rx 2 0x1AE s 8 5D 06 A4 05 E2 01 95 03 
15:07:30:9661 Rx 2 0x1AF s 8 3F 00 42 00 00 00 FC FF 
15:07:30:9661 Rx 2 0x1B0 s 8 00 00 35 00 2F 00 03 00 
15:07:30:9661 Rx 2 0x1B1 s 8 00 00 00 00 00 00 00 00 
15:07:30:9661 Rx 2 0x1B2 s 8 00 00 00 00 00 00 00 00 
15:07:30:9671 Rx 2 0x1B3 s 8 00 0A 00 00 00 00 00 00 
15:07:30:9671 Rx 2 0x5C1 s 8 35 11 61 41 41 00 00 B0 
15:07:30:9671 Rx 2 0x5C2 s 8 02 0C 13 88 00 00 00 00 
15:07:30:9671 Rx 2 0x5C3 s 8 00 00 00 00 C5 24 31 C0 
15:07:30:9721 Rx 1 0xCFF0008 x 8 E4 3B C8 13 1C 02 50 F5 
15:07:30:9731 Rx 1 0xCFF08EF x 8 09 00 00 00 C9 13 98 3A 
15:07:30:9741 Rx 2 0x5C3 s 8 00 00 00 00 C5 24 31 C0 
15:07:30:9741 Rx 2 0x5C1 s 8 35 11 61 41 41 00 00 B1 
15:07:30:9741 Rx 2 0x5C2 s 8 02 0C 13 88 00 00 00 00 
15:07:30:9821 Rx 1 0xCFF0008 x 8 E7 3B C7 13 1C 02 50 05 
15:07:30:9831 Rx 1 0xCFF08EF x 8 09 00 00 00 C9 13 98 3A 
15:07:30:9841 Rx 2 0x5C3 s 8 00 00 00 00 C5 24 31 C0 
15:07:30:9841 Rx 2 0x5C1 s 8 35 11 61 41 41 00 00 B2 
15:07:30:9841 Rx 2 0x5C2 s 8 02 0C 13 88 00 00 00 00 
15:07:30:9921 Rx 1 0xCFF0008 x 8 EA 3B C7 13 F4 01 50 15 
15:07:30:9931 Rx 1 0xCFF08EF x 8 09 00 00 00 C9 13 98 3A 
15:07:30:9941 Rx 2 0x5C3 s 8 00 00 00 00 C5 24 31 C0 
15:07:30:9941 Rx 2 0x5C1 s 8 35 11 61 41 41 00 00 B3 
15:07:30:9951 Rx 2 0x5C2 s 8 02 0C 13 88 00 00 00 00 
15:07:31:0021 Rx 1 0xCFF0008 x 8 EB 3B C7 13 F4 01 50 25 
15:07:31:0031 Rx 1 0xCFF08EF x 8 09 00 00 00 C9 13 98 3A 
15:07:31:0031 Rx 1 0xCFF0108 x 8 62 4E 5C 02 2B 11 00 E0 
15:07:31:0041 Rx 2 0x5C3 s 8 00 00 00 00 C5 24 31 C0 
15:07:31:0041 Rx 2 0x5C1 s 8 35 11 61 41 41 00 00 B4 
15:07:31:0041 Rx 2 0x5C2 s 8 02 0C 13 88 00 00 00 00 
15:07:31:0121 Rx 1 0xCFF0008 x 8 EA 3B C8 13 F4 01 50 35 
15:07:31:0131 Rx 1 0xCFF08EF x 8 09 00 00 00 C9 13 98 3A 
15:07:31:0141 Rx 2 0x061 s 8 00 02 51 01 B5 4A 00 00 
15:07:31:0141 Rx 2 0x062 s 8 4E 62 00 00 00 00 00 00 
15:07:31:0141 Rx 2 0x1AA s 8 F8 FF 0E 00 32 00 51 01 
15:07:31:0151 Rx 2 0x1AB s 8 E7 FF 45 00 E4 FF 44 00 
15:07:31:0151 Rx 2 0x1AC s 8 0B 01 B3 01 0B 01 93 01 
15:07:31:0151 Rx 2 0x1AD s 8 EE 18 03 02 00 00 A0 0F 
15:07:31:0151 Rx 2 0x1AE s 8 5D 06 A4 05 E2 01 94 03 
15:07:31:0161 Rx 2 0x1AF s 8 40 00 3E 00 00 00 FC FF 
15:07:31:0161 Rx 2 0x1B0 s 8 00 00 35 00 2F 00 03 00 
15:07:31:0161 Rx 2 0x1B1 s 8 00 00 00 00 00 00 00 00 
15:07:31:0161 Rx 2 0x1B2 s 8 00 00 00 00 00 00 00 00 
15:07:31:0171 Rx 2 0x1B3 s 8 00 0A 00 00 00 00 00 00 
15:07:31:0171 Rx 2 0x5C1 s 8 35 11 61 41 41 00 00 B5 
15:07:31:0171 Rx 2 0x5C2 s 8 02 0C 13 88 00 00 00 00 
15:07:31:0171 Rx 2 0x5C3 s 8 00 00 00 00 C5 24 31 C0 
15:07:31:0221 Rx 1 0xCFF0008 x 8 EB 3B C8 13 F4 01 50 45 
15:07:31:0231 Rx 1 0xCFF08EF x 8 09 00 00 00 C9 13 98 3A 
15:07:31:0241 Rx 2 0x5C3 s 8 00 00 00 00 C5 24 31 C0 
15:07:31:0241 Rx 2 0x5C1 s 8 35 11 61 41 41 00 00 B6 
15:07:31:0241 Rx 2 0x5C2 s 8 02 0C 13 88 00 00 00 00 
15:07:31:0321 Rx 1 0xCFF0008 x 8 F0 3B C7 13 F4 01 50 55 
15:07:31:0331 Rx 1 0xCFF08EF x 8 09 00 00 00 C9 13 98 3A 
15:07:31:0341 Rx 2 0x5C3 s 8 00 00 00 00 C5 24 31 C0 
15:07:31:0341 Rx 2 0x5C1 s 8 35 11 61 41 41 00 00 B7 
15:07:31:0341 Rx 2 0x5C2 s 8 02 0C 13 88 00 00 00 00 
15:07:31:0421 Rx 1 0xCFF0008 x 8 F2 3B C7 13 08 02 50 65 
15:07:31:0431 Rx 1 0xCFF08EF x 8 09 00 00 00 C8 13 98 3A 
15:07:31:0441 Rx 2 0x5C3 s 8 00 00 00 00 C5 24 31 C0 
15:07:31:0441 Rx 2 0x5C1 s 8 35 11 61 41 41 00 00 B8 
15:07:31:0451 Rx 2 0x5C2 s 8 02 0C 13 88 00 00 00 00 
15:07:31:0521 Rx 1 0xCFF0008 x 8 F3 3B C6 13 08 02 50 75 
15:07:31:0531 Rx 1 0xCFF08EF x 8 09 00 00 00 C8 13 98 3A 
15:07:31:0531 Rx 1 0xCFF0108 x 8 62 4E 5C 02 2B 11 00 F0 
15:07:31:0541 Rx 2 0x5C3 s 8 00 00 00 00 C5 24 31 C0 
15:07:31:0541 Rx 1 0xCFF0208 x 8 00 00 EB 03 52 17 00 80 
15:07:31:0551 Rx 1 0xCFF0308 x 8 00 00 00 00 00 5D 06 05 
15:07:31:0541 Rx 2 0x5C1 s 8 35 11 61 41 41 00 00 B9 
15:07:31:0561 Rx 1 0xCFF0408 x 8 00 3F 00 59 01 5D 06 00 
15:07:31:0541 Rx 2 0x5C2 s 8 02 0C 13 88 00 00 00 00 
15:07:31:0621 Rx 1 0xCFF0008 x 8 F2 3B C7 13 F4 01 50 85 
15:07:31:0631 Rx 1 0xCFF08EF x 8 09 00 00 00 C7 13 98 3A 
15:07:31:0641 Rx 2 0x061 s 8 00 02 5A 01 B5 4A 00 00 
15:07:31:0641 Rx 2 0x062 s 8 4E 62 00 00 00 00 00 00 
15:07:31:0641 Rx 2 0x1AA s 8 F9 FF 0F 00 33 00 5A 01 
15:07:31:0651 Rx 2 0x1AB s 8 E8 FF 44 00 E0 FF 44 00 
15:07:31:0651 Rx 2 0x1AC s 8 0D 01 B6 01 0D 01 97 01 
15:07:31:0651 Rx 2 0x1AD s 8 EE 18 03 02 00 00 A0 0F 
15:07:31:0651 Rx 2 0x1AE s 8 5D 06 A4 05 E2 01 95 03 
15:07:31:0661 Rx 2 0x1AF s 8 3F 00 3E 00 00 00 FC FF 
15:07:31:0661 Rx 2 0x1B0 s 8 00 00 34 00 2F 00 03 00 
15:07:31:0661 Rx 2 0x1B1 s 8 00 00 00 00 00 00 00 00 
15:07:31:0661 Rx 2 0x1B2 s 8 00 00 00 00 00 00 00 00 
15:07:31:0671 Rx 2 0x1B3 s 8 00 0A 00 00 00 00 00 00 
15:07:31:0671 Rx 2 0x5C1 s 8 35 11 61 41 41 00 00 BA 
15:07:31:0671 Rx 2 0x5C2 s 8 02 0C 13 88 00 00 00 00 
15:07:31:0671 Rx 2 0x5C3 s 8 00 00 00 00 C5 24 31 C0 
15:07:31:0721 Rx 1 0xCFF0008 x 8 F6 3B C5 13 F4 01 50 95 
15:07:31:0731 Rx 1 0xCFF08EF x 8 09 00 00 00 C7 13 98 3A 
15:07:31:0741 Rx 2 0x5C3 s 8 00 00 00 00 C5 24 31 C0 
15:07:31:0741 Rx 2 0x5C1 s 8 35 11 61 41 41 00 00 BB 
15:07:31:0741 Rx 2 0x5C2 s 8 02 0C 13 88 00 00 00 00 
15:07:31:0821 Rx 1 0xCFF0008 x 8 F8 3B C5 13 F4 01 50 A5 
15:07:31:0831 Rx 1 0xCFF08EF x 8 09 00 00 00 C6 13 98 3A 
15:07:31:0841 Rx 2 0x5C3 s 8 00 00 00 00 C5 24 31 C0 
15:07:31:0841 Rx 2 0x5C1 s 8 35 11 61 41 41 00 00 BC 
15:07:31:0841 Rx 2 0x5C2 s 8 02 0C 13 88 00 00 00 00 
15:07:31:0921 Rx 1 0xCFF0008 x 8 F7 3B C5 13 12 02 50 B5 
15:07:31:0931 Rx 1 0xCFF08EF x 8 09 00 00 00 C6 13 98 3A 
15:07:31:0941 Rx 2 0x5C3 s 8 00 00 00 00 C5 24 31 C0 
15:07:31:0941 Rx 2 0x5C1 s 8 35 11 61 41 41 00 00 BD 
15:07:31:0941 Rx 2 0x5C2 s 8 02 0C 13 88 00 00 00 00 
15:07:31:1021 Rx 1 0xCFF0008 x 8 F4 3B C6 13 12 02 50 C5 
15:07:31:1031 Rx 1 0xCFF08EF x 8 09 00 00 00 C6 13 98 3A 
15:07:31:1031 Rx 1 0xCFF0108 x 8 62 4E 5C 02 2B 11 00 00 
15:07:31:1041 Rx 2 0x5C3 s 8 00 00 00 00 C5 24 31 C0 
15:07:31:1041 Rx 2 0x5C1 s 8 35 11 61 41 41 00 00 BE 
15:07:31:1051 Rx 2 0x5C2 s 8 02 0C 13 88 00 00 00 00 
15:07:31:1121 Rx 1 0xCFF0008 x 8 F7 3B C6 13 EA 01 50 D5 
15:07:31:1131 Rx 1 0xCFF08EF x 8 09 00 00 00 C5 13 98 3A 
15:07:31:1141 Rx 2 0x061 s 8 00 02 60 01 B4 4A 00 00 
15:07:31:1141 Rx 2 0x062 s 8 4E 62 00 00 00 00 00 00 
15:07:31:1141 Rx 2 0x1AA s 8 F9 FF 0F 00 34 00 60 01 
15:07:31:1151 Rx 2 0x1AB s 8 E8 FF 43 00 DF FF 42 00 
15:07:31:1151 Rx 2 0x1AC s 8 0E 01 B8 01 0E 01 9A 01 
15:07:31:1151 Rx 2 0x1AD s 8 EE 18 03 02 00 00 A0 0F 
15:07:31:1151 Rx 2 0x1AE s 8 5D 06 A4 05 E2 01 95 03 
15:07:31:1161 Rx 2 0x1AF s 8 3E 00 3D 00 00 00 FC FF 
15:07:31:1161 Rx 2 0x1B0 s 8 00 00 33 00 2F 00 03 00 
15:07:31:1161 Rx 2 0x1B1 s 8 00 00 00 00 00 00 00 00 
15:07:31:1161 Rx 2 0x1B2 s 8 00 00 00 00 00 00 00 00 
15:07:31:1171 Rx 2 0x1B3 s 8 00 0A 00 00 00 00 00 00 
15:07:31:1171 Rx 2 0x5C1 s 8 35 11 61 41 41 00 00 B0 
15:07:31:1171 Rx 2 0x5C2 s 8 02 0C 13 88 00 00 00 00 
15:07:31:1171 Rx 2 0x5C3 s 8 00 00 00 00 C5 24 31 C0 
15:07:31:1221 Rx 1 0xCFF0008 x 8 FA 3B C4 13 EA 01 50 E5 
15:07:31:1231 Rx 1 0xCFF08EF x 8 09 00 00 00 C5 13 98 3A 
15:07:31:1241 Rx 2 0x5C3 s 8 00 00 00 00 C5 24 31 C0 
15:07:31:1241 Rx 2 0x5C1 s 8 35 11 61 41 41 00 00 B1 
15:07:31:1241 Rx 2 0x5C2 s 8 02 0C 13 88 00 00 00 00 
15:07:31:1321 Rx 1 0xCFF0008 x 8 FB 3B C4 13 EA 01 50 F5 
15:07:31:1331 Rx 1 0xCFF08EF x 8 09 00 00 00 C5 13 98 3A 
15:07:31:1341 Rx 2 0x5C3 s 8 00 00 00 00 C5 24 31 C0 
15:07:31:1341 Rx 2 0x5C1 s 8 35 11 61 41 41 00 00 B2 
15:07:31:1341 Rx 2 0x5C2 s 8 02 0C 13 88 00 00 00 00 
15:07:31:1421 Rx 1 0xCFF0008 x 8 FA 3B C5 13 08 02 50 05 
15:07:31:1431 Rx 1 0xCFF08EF x 8 09 00 00 00 C5 13 98 3A 
15:07:31:1441 Rx 2 0x5C3 s 8 00 00 00 00 C5 24 31 C0 
15:07:31:1441 Rx 2 0x5C1 s 8 35 11 61 41 41 00 00 B3 
15:07:31:1441 Rx 2 0x5C2 s 8 02 0C 13 88 00 00 00 00 
15:07:31:1521 Rx 1 0xCFF0008 x 8 FD 3B C4 13 08 02 50 15 
15:07:31:1531 Rx 1 0xCFF08EF x 8 09 00 00 00 C4 13 98 3A 
15:07:31:1531 Rx 1 0xCFF0108 x 8 62 4E 5C 02 2B 11 00 10 
15:07:31:1541 Rx 1 0xCFF0208 x 8 00 00 EB 03 52 17 00 90 
15:07:31:1551 Rx 1 0xCFF0308 x 8 00 00 00 00 00 5D 06 05 
15:07:31:1561 Rx 1 0xCFF0408 x 8 00 3C 00 6A 01 5D 06 00 
15:07:31:1541 Rx 2 0x5C3 s 8 00 00 00 00 C5 24 31 C0 
15:07:31:1541 Rx 2 0x5C1 s 8 35 11 61 41 41 00 00 B4 
15:07:31:1551 Rx 2 0x5C2 s 8 02 0C 13 88 00 00 00 00 
15:07:31:1621 Rx 1 0xCFF0008 x 8 02 3C C2 13 E0 01 50 25 
15:07:31:1631 Rx 1 0xCFF08EF x 8 09 00 00 00 C4 13 98 3A 
15:07:31:1641 Rx 2 0x061 s 8 00 02 6C 01 B4 4A 00 00 
15:07:31:1641 Rx 2 0x062 s 8 4E 62 00 00 00 00 00 00 
15:07:31:1641 Rx 2 0x1AA s 8 F9 FF 0F 00 34 00 6B 01 
15:07:31:1651 Rx 2 0x1AB s 8 EA FF 40 00 E6 FF 41 00 
15:07:31:1651 Rx 2 0x1AC s 8 10 01 BD 01 10 01 A1 01 
15:07:31:1651 Rx 2 0x1AD s 8 EE 18 03 02 00 00 A0 0F 
15:07:31:1651 Rx 2 0x1AE s 8 5D 06 A4 05 E2 01 98 03 
15:07:31:1661 Rx 2 0x1AF s 8 3A 00 3C 00 00 00 FC FF 
15:07:31:1661 Rx 2 0x1B0 s 8 00 00 32 00 2E 00 03 00 
15:07:31:1661 Rx 2 0x1B1 s 8 00 00 00 00 00 00 00 00 
15:07:31:1661 Rx 2 0x1B2 s 8 00 00 00 00 00 00 00 00 
15:07:31:1671 Rx 2 0x1B3 s 8 00 0A 00 00 00 00 00 00 
15:07:31:1671 Rx 2 0x5C1 s 8 35 11 61 41 41 00 00 B5 
15:07:31:1671 Rx 2 0x5C2 s 8 02 0C 13 88 00 00 00 00 
15:07:31:1671 Rx 2 0x5C3 s 8 00 00 00 00 C5 24 31 C0 
15:07:31:1721 Rx 1 0xCFF0008 x 8 04 3C C2 13 E0 01 50 35 
15:07:31:1731 Rx 1 0xCFF08EF x 8 09 00 00 00 C4 13 98 3A 
15:07:31:1741 Rx 2 0x5C3 s 8 00 00 00 00 C5 24 31 C0 
15:07:31:1741 Rx 2 0x5C1 s 8 35 11 61 41 41 00 00 B6 
15:07:31:1741 Rx 2 0x5C2 s 8 02 0C 13 88 00 00 00 00 
15:07:31:1821 Rx 1 0xCFF0008 x 8 03 3C C3 13 E0 01 50 45 
15:07:31:1831 Rx 1 0xCFF08EF x 8 09 00 00 00 C4 13 98 3A 
15:07:31:1841 Rx 2 0x5C3 s 8 00 00 00 00 C5 24 31 C0 
15:07:31:1841 Rx 2 0x5C1 s 8 35 11 61 41 41 00 00 B7 
15:07:31:1841 Rx 2 0x5C2 s 8 02 0C 13 88 00 00 00 00 
15:07:31:1921 Rx 1 0xCFF0008 x 8 04 3C C3 13 EA 01 50 55 
15:07:31:1931 Rx 1 0xCFF08EF x 8 09 00 00 00 C4 13 98 3A 
15:07:31:1941 Rx 2 0x5C3 s 8 00 00 00 00 C5 24 31 C0 
15:07:31:1941 Rx 2 0x5C1 s 8 35 11 61 41 41 00 00 B8 
15:07:31:1941 Rx 2 0x5C2 s 8 02 0C 13 88 00 00 00 00 
15:07:31:2021 Rx 1 0xCFF0008 x 8 08 3C C2 13 EA 01 50 65 
15:07:31:2031 Rx 1 0xCFF08EF x 8 09 00 00 00 C3 13 98 3A 
15:07:31:2031 Rx 1 0xCFF0108 x 8 62 4E 5C 02 2B 11 00 20 
15:07:31:2041 Rx 2 0x5C3 s 8 00 00 00 00 C5 24 31 C0 
15:07:31:2041 Rx 2 0x5C1 s 8 35 11 61 41 41 00 00 B9 
15:07:31:2051 Rx 2 0x5C2 s 8 02 0C 13 88 00 00 00 00 
15:07:31:2121 Rx 1 0xCFF0008 x 8 0A 3C C1 13 EA 01 50 75 
15:07:31:2131 Rx 1 0xCFF08EF x 8 09 00 00 00 C3 13 98 3A 
15:07:31:2141 Rx 2 0x061 s 8 00 02 72 01 B5 4A 00 00 
15:07:31:2141 Rx 2 0x062 s 8 4E 62 00 00 00 00 00 00 
15:07:31:2141 Rx 2 0x1AA s 8 F6 FF 0F 00 35 00 72 01 
15:07:31:2151 Rx 2 0x1AB s 8 EB FF 3F 00 EF FF 40 00 
15:07:31:2151 Rx 2 0x1AC s 8 12 01 C0 01 12 01 A6 01 
15:07:31:2151 Rx 2 0x1AD s 8 EE 18 03 02 00 00 A0 0F 
